! Touchstone file version 1.1
! Written by SMATRIXIO.2.8.1
! Date : Wed Jun  4 14:57:23 2025
# Hz S RI R 50.000000	
! Port[1] in
! Port[2] in 2
! Port[3] in 3
! Port[4] in 4
! Port[5] in 5
! Port[6] in 6
! Port[7] in 7
! Port[8] in 8
! Port[9] in 9
! Port[10] in 10
1000000 -0.9999999999999999 -1.57098479888474e-13 5.983578965407617e-25 -1.700527462408227e-18 2.033085745127033e-25 -1.75404728776298e-19 1.013373198879348e-26 -5.247171264458869e-20 
    6.275645866067375e-26 -2.212009737662371e-20 8.203883014762694e-26 -1.214260983449875e-20 4.555621306144844e-26 -7.376192212724361e-21 6.332886950156884e-26 -4.855432025662537e-21 
    3.266190903758038e-26 -2.821132912279222e-21 5.449963832188053e-26 -1.970261954108886e-21 
    5.983578965407617e-25 -1.700527462408227e-18 -0.9999999999999999 -1.803294933223916e-13 -6.310573863117618e-26 -1.702989123443573e-18 -9.576765403432289e-26 -2.285753245602521e-19 
    1.223469819272144e-25 -6.851736106244231e-20 8.799983562416765e-26 -3.101521718641646e-20 7.758948431281683e-26 -1.669470012034224e-20 6.451928602852496e-26 -1.012692306104991e-20 
    4.617341917650112e-26 -5.538387652620313e-21 6.173773097818708e-26 -3.698217233532049e-21 
    2.033085745127033e-25 -1.75404728776298e-19 -6.310573863117618e-26 -1.702989123443573e-18 -0.9999999999999999 -1.555255639632519e-13 -3.052928560762327e-25 -1.289521605755769e-18 
    -3.553711830141783e-27 -1.71944010488333e-19 4.855979045021303e-26 -5.517623717018083e-20 6.522180448024199e-26 -2.454180415686348e-20 1.958036060520337e-26 -1.321588596704463e-20 
    3.507403658507809e-26 -6.651143401317915e-21 2.212226159135306e-26 -4.185306717041301e-21 
    1.013373198879348e-26 -5.247171264458869e-20 -9.576765403432289e-26 -2.285753245602521e-19 -3.052928560762327e-25 -1.289521605755769e-18 -0.9999999999999999 -1.468793888789053e-13 
    -1.317609847176357e-25 -1.241595753370146e-18 8.301782324802785e-26 -1.793624432457495e-19 4.264617897434516e-26 -5.645445483563734e-20 5.711872473423849e-26 -2.517659325721432e-20 
    6.580652080285445e-26 -1.123474737334654e-20 5.409420427758678e-26 -6.513461195860429e-21 
    6.275645866067375e-26 -2.212009737662371e-20 1.223469819272144e-25 -6.851736106244231e-20 -3.553711830141783e-27 -1.71944010488333e-19 -1.317609847176357e-25 -1.241595753370146e-18 
    -0.9999999999999999 -1.581456196028433e-13 5.599638509030021e-25 -1.259663996221535e-18 3.04852042765528e-27 -1.846894709941504e-19 4.392057665390803e-26 -5.863347874050306e-20 
    -3.549291384654078e-27 -2.162459854447509e-20 5.713011120116997e-26 -1.109267530223473e-20 
    8.203883014762694e-26 -1.214260983449875e-20 8.799983562416765e-26 -3.101521718641646e-20 4.855979045021303e-26 -5.517623717018083e-20 8.301782324802785e-26 -1.793624432457495e-19 
    5.599638509030021e-25 -1.259663996221535e-18 -0.9999999999999999 -1.586881488694955e-13 -1.830071459322779e-25 -1.449553218624073e-18 1.19173353257837e-25 -2.048081766155692e-19 
    -1.058940912376187e-26 -5.378203927809493e-20 1.53463413270177e-25 -2.278177114539859e-20 
    4.555621306144844e-26 -7.376192212724361e-21 7.758948431281683e-26 -1.669470012034224e-20 6.522180448024199e-26 -2.454180415686348e-20 4.264617897434516e-26 -5.645445483563734e-20 
    3.04852042765528e-27 -1.846894709941504e-19 -1.830071459322779e-25 -1.449553218624073e-18 -0.9999999999999999 -1.624637286328881e-13 -2.61223111591903e-25 -1.587195633785949e-18 
    5.750495034528507e-26 -1.877126067001998e-19 7.109359899897365e-26 -5.599101611304643e-20 
    6.332886950156884e-26 -4.855432025662537e-21 6.451928602852496e-26 -1.012692306104991e-20 1.958036060520337e-26 -1.321588596704463e-20 5.711872473423849e-26 -2.517659325721432e-20 
    4.392057665390803e-26 -5.863347874050306e-20 1.19173353257837e-25 -2.048081766155692e-19 -2.61223111591903e-25 -1.587195633785949e-18 -0.9999999999999999 -1.738419180830315e-13 
    -5.054491877256985e-25 -1.428891392946625e-18 2.309362420278567e-25 -1.937361914234306e-19 
    3.266190903758038e-26 -2.821132912279222e-21 4.617341917650112e-26 -5.538387652620313e-21 3.507403658507809e-26 -6.651143401317915e-21 6.580652080285445e-26 -1.123474737334654e-20 
    -3.549291384654078e-27 -2.162459854447509e-20 -1.058940912376187e-26 -5.378203927809493e-20 5.750495034528507e-26 -1.877126067001998e-19 -5.054491877256985e-25 -1.428891392946625e-18 
    -1 -1.664829753149885e-13 1.109415699154242e-24 -1.235025213092718e-18 
    5.449963832188053e-26 -1.970261954108886e-21 6.173773097818708e-26 -3.698217233532049e-21 2.212226159135306e-26 -4.185306717041301e-21 5.409420427758678e-26 -6.513461195860429e-21 
    5.713011120116997e-26 -1.109267530223473e-20 1.53463413270177e-25 -2.278177114539859e-20 7.109359899897365e-26 -5.599101611304643e-20 2.309362420278567e-25 -1.937361914234306e-19 
    1.109415699154242e-24 -1.235025213092718e-18 -1 -1.759680474991263e-13 
1061009.227150982 -0.9999999999999998 -1.484482607698356e-13 2.151455105486243e-25 -1.608062118253321e-18 3.73934543777773e-26 -1.658668079439431e-19 3.569989771607684e-26 -4.961855477290482e-20 
    1.630028357493913e-26 -2.091735195017977e-20 7.917712036424173e-26 -1.148237456932477e-20 5.525839757741742e-26 -6.975115485138555e-21 6.084237951177683e-26 -4.591426828777637e-21 
    3.831465179387978e-26 -2.667732750960424e-21 5.284589149980645e-26 -1.863127705003982e-21 
    2.151455105486243e-25 -1.608062118253321e-18 -0.9999999999999998 -1.706527212623387e-13 8.004590073104266e-27 -1.610389610872552e-18 -6.842342054038344e-26 -2.161466208275061e-19 
    9.152288843313749e-26 -6.479175085384593e-20 1.052175356925796e-25 -2.93287992058578e-20 7.272960658428867e-26 -1.578693056869048e-20 7.08998224736724e-26 -9.576275028383715e-21 
    6.078518733474541e-26 -5.237225461908442e-21 6.068437024810175e-26 -3.497127706098121e-21 
    3.73934543777773e-26 -1.658668079439431e-19 8.004590073104266e-27 -1.610389610872552e-18 -0.9999999999999998 -1.471159931402854e-13 -3.089062713588424e-25 -1.219404358203652e-18 
    4.28254629500961e-26 -1.625946047863928e-19 3.502219727077901e-26 -5.21760029931131e-20 5.157044066454312e-26 -2.320734558564156e-20 2.961180112353735e-26 -1.249729824281233e-20 
    3.713417701607054e-26 -6.289490331539709e-21 3.503210422517426e-26 -3.957724192781214e-21 
    3.569989771607684e-26 -4.961855477290482e-20 -6.842342054038344e-26 -2.161466208275061e-19 -3.089062713588424e-25 -1.219404358203652e-18 -0.9999999999999998 -1.386782981531342e-13 
    -2.99835265237823e-26 -1.174084334353706e-18 8.786861389704639e-26 -1.696096759329333e-19 4.545388172306128e-26 -5.338478374794354e-20 3.368837171088752e-26 -2.380764123148132e-20 
    5.035067066010651e-26 -1.062385862437149e-20 4.998965054909074e-26 -6.159301674389996e-21 
    1.630028357493913e-26 -2.091735195017977e-20 9.152288843313749e-26 -6.479175085384593e-20 4.28254629500961e-26 -1.625946047863928e-19 -2.99835265237823e-26 -1.174084334353706e-18 
    -0.9999999999999998 -1.493364391895357e-13 4.242161647492244e-25 -1.191170603177117e-18 2.457036984386425e-26 -1.746470671982114e-19 4.546249688722652e-26 -5.544526308412163e-20 
    5.411790174344579e-26 -2.044875407384721e-20 2.61402026834359e-26 -1.048950698449381e-20 
    7.917712036424173e-26 -1.148237456932477e-20 1.052175356925796e-25 -2.93287992058578e-20 3.502219727077901e-26 -5.21760029931131e-20 8.786861389704639e-26 -1.696096759329333e-19 
    4.242161647492244e-25 -1.191170603177117e-18 -0.9999999999999998 -1.497805283993858e-13 -1.182876737096978e-25 -1.370734722910059e-18 6.451728329977088e-26 -1.936718942972188e-19 
    1.557995403602831e-26 -5.085771576946316e-20 1.07295410444427e-25 -2.154305185136192e-20 
    5.525839757741742e-26 -6.975115485138555e-21 7.272960658428867e-26 -1.578693056869048e-20 5.157044066454312e-26 -2.320734558564156e-20 4.545388172306128e-26 -5.338478374794354e-20 
    2.457036984386425e-26 -1.746470671982114e-19 -1.182876737096978e-25 -1.370734722910059e-18 -0.9999999999999998 -1.537773312880364e-13 6.991890068745148e-26 -1.500892435484054e-18 
    2.264187004653489e-26 -1.77505825994324e-19 7.110088367905923e-26 -5.294651840284897e-20 
    6.084237951177683e-26 -4.591426828777637e-21 7.08998224736724e-26 -9.576275028383715e-21 2.961180112353735e-26 -1.249729824281233e-20 3.368837171088752e-26 -2.380764123148132e-20 
    4.546249688722652e-26 -5.544526308412163e-20 6.451728329977088e-26 -1.936718942972188e-19 6.991890068745148e-26 -1.500892435484054e-18 -0.9999999999999998 -1.644354723244379e-13 
    1.559989946076976e-25 -1.351196532085935e-18 1.477174564614393e-25 -1.832019033932195e-19 
    3.831465179387978e-26 -2.667732750960424e-21 6.078518733474541e-26 -5.237225461908442e-21 3.713417701607054e-26 -6.289490331539709e-21 5.035067066010651e-26 -1.062385862437149e-20 
    5.411790174344579e-26 -2.044875407384721e-20 1.557995403602831e-26 -5.085771576946316e-20 2.264187004653489e-26 -1.77505825994324e-19 1.559989946076976e-25 -1.351196532085935e-18 
    -1 -1.573300449668369e-13 1.743964098170753e-24 -1.167870891343624e-18 
    5.284589149980645e-26 -1.863127705003982e-21 6.068437024810175e-26 -3.497127706098121e-21 3.503210422517426e-26 -3.957724192781214e-21 4.998965054909074e-26 -6.159301674389996e-21 
    2.61402026834359e-26 -1.048950698449381e-20 1.07295410444427e-25 -2.154305185136192e-20 7.110088367905923e-26 -5.294651840284897e-20 1.477174564614393e-25 -1.832019033932195e-19 
    1.743964098170753e-24 -1.167870891343624e-18 -1 -1.662118291638382e-13 
1122018.454301963 -0.9999999999999999 -1.40014167545899e-13 -1.277382506702588e-25 -1.515596774098334e-18 -1.107116975061504e-25 -1.563288871114396e-19 5.82624909195533e-26 -4.676539690120938e-20 
    -2.520585349171214e-26 -1.971460652364339e-20 7.613152337206628e-26 -1.082213930415184e-20 6.355993832811323e-26 -6.57403875754258e-21 5.824584668104977e-26 -4.327421631893999e-21 
    4.311305793485912e-26 -2.51433258963321e-21 5.10415223236773e-26 -1.75599345590243e-21 
    -1.277382506702588e-25 -1.515596774098334e-18 -0.9999999999999999 -1.607188300982426e-13 7.133165913655224e-26 -1.517790098301528e-18 -4.36249865909243e-26 -2.03717917094757e-19 
    6.347858217869604e-26 -6.10661406452366e-20 1.199049194720186e-25 -2.764238122529173e-20 6.79434423100097e-26 -1.487916101703835e-20 7.614312732875925e-26 -9.025626995715731e-21 
    7.342772007422172e-26 -4.936063271163445e-21 5.936608806754126e-26 -3.296038178667274e-21 
    -1.107116975061504e-25 -1.563288871114396e-19 7.133165913655224e-26 -1.517790098301528e-18 -0.9999999999999999 -1.38612304756322e-13 -3.101950728952704e-25 -1.149287110651536e-18 
    8.389313165222659e-26 -1.532451990844409e-19 2.273782183418549e-26 -4.917576881604226e-20 3.9081175740919e-26 -2.187288701441267e-20 3.83672042788982e-26 -1.17787105185732e-20 
    3.873807138557525e-26 -5.927837261761698e-21 4.631888231000488e-26 -3.730141668485171e-21 
    5.82624909195533e-26 -4.676539690120938e-20 -4.36249865909243e-26 -2.03717917094757e-19 -3.101950728952704e-25 -1.149287110651536e-18 -0.9999999999999999 -1.309063930302627e-13 
    6.091318424940499e-26 -1.106572915337258e-18 9.164242299528207e-26 -1.598569086201172e-19 4.767202139579672e-26 -5.031511266024976e-20 1.259536695432e-26 -2.243868920572766e-20 
    3.62607850579598e-26 -1.00129698753767e-20 4.601887204175282e-26 -5.805142152918261e-21 
    -2.520585349171214e-26 -1.971460652364339e-20 6.347858217869604e-26 -6.10661406452366e-20 8.389313165222659e-26 -1.532451990844409e-19 6.091318424940499e-26 -1.106572915337258e-18 
    -0.9999999999999999 -1.409474318180763e-13 3.005781730092098e-25 -1.122677210132685e-18 4.359809492599169e-26 -1.646046634022701e-19 4.655243766616161e-26 -5.225704742774033e-20 
    1.051753308558592e-25 -1.927290960307529e-20 -1.642995320546126e-27 -9.88633866667079e-21 
    7.613152337206628e-26 -1.082213930415184e-20 1.199049194720186e-25 -2.764238122529173e-20 2.273782183418549e-26 -4.917576881604226e-20 9.164242299528207e-26 -1.598569086201172e-19 
    3.005781730092098e-25 -1.122677210132685e-18 -0.9999999999999999 -1.41430961706634e-13 -5.986668810682973e-26 -1.291916227196043e-18 1.540154027159582e-26 -1.825356119788547e-19 
    3.88060507518182e-26 -4.793339226081942e-20 6.547711092531203e-26 -2.030433255723717e-20 
    6.355993832811323e-26 -6.57403875754258e-21 6.79434423100097e-26 -1.487916101703835e-20 3.9081175740919e-26 -2.187288701441267e-20 4.767202139579672e-26 -5.031511266024976e-20 
    4.359809492599169e-26 -1.646046634022701e-19 -5.986668810682973e-26 -1.291916227196043e-18 -0.9999999999999999 -1.447959505560089e-13 3.646122359849719e-25 -1.414589237182094e-18 
    -8.571468435541737e-27 -1.67299045288442e-19 7.066276480559645e-26 -4.990202069265183e-20 
    5.824584668104977e-26 -4.327421631893999e-21 7.614312732875925e-26 -9.025626995715731e-21 3.83672042788982e-26 -1.17787105185732e-20 1.259536695432e-26 -2.243868920572766e-20 
    4.655243766616161e-26 -5.225704742774033e-20 1.540154027159582e-26 -1.825356119788547e-19 3.646122359849719e-25 -1.414589237182094e-18 -0.9999999999999999 -1.549367725842135e-13 
    7.445402328597495e-25 -1.273501671224956e-18 7.262491191166305e-26 -1.726676153629747e-19 
    4.311305793485912e-26 -2.51433258963321e-21 7.342772007422172e-26 -4.936063271163445e-21 3.873807138557525e-26 -5.927837261761698e-21 3.62607850579598e-26 -1.00129698753767e-20 
    1.051753308558592e-25 -1.927290960307529e-20 3.88060507518182e-26 -4.793339226081942e-20 -8.571468435541737e-27 -1.67299045288442e-19 7.445402328597495e-25 -1.273501671224956e-18 
    -1 -1.483781079549501e-13 2.298600056991469e-24 -1.100716569594237e-18 
    5.10415223236773e-26 -1.75599345590243e-21 5.936608806754126e-26 -3.296038178667274e-21 4.631888231000488e-26 -3.730141668485171e-21 4.601887204175282e-26 -5.805142152918261e-21 
    -1.642995320546126e-27 -9.88633866667079e-21 6.547711092531203e-26 -2.030433255723717e-20 7.066276480559645e-26 -4.990202069265183e-20 7.262491191166305e-26 -1.726676153629747e-19 
    2.298600056991469e-24 -1.100716569594237e-18 -1 -1.568316874140291e-13 
1190471.933048065 -0.9999999999999998 -1.324610492152334e-13 -8.331478012465291e-27 -1.433186966514369e-18 -3.218203466515064e-26 -1.478288247429487e-19 5.058343682890572e-26 -4.422253984673195e-20 
    9.486890963395556e-27 -1.86426286707286e-20 6.94878423418212e-26 -1.023367576817509e-20 5.821640208763978e-26 -6.216576225183142e-21 5.413624071924682e-26 -4.092118357541405e-21 
    4.6229070635259e-26 -2.377615378150288e-21 4.815308994119301e-26 -1.660507313137019e-21 
    -8.331478012465291e-27 -1.433186966514369e-18 -0.9999999999999998 -1.520009744486361e-13 6.452522098902282e-26 -1.435261136812775e-18 3.215651034011408e-26 -1.926408051372938e-19 
    6.541005257563206e-26 -5.77456736869773e-20 9.064047010713024e-26 -2.613933265825647e-20 6.270191385144735e-26 -1.40701085389216e-20 7.16360507292604e-26 -8.534861480069051e-21 
    5.987656825542727e-26 -4.667673373836655e-21 5.915205637283174e-26 -3.116815839483993e-21 
    -3.218203466515064e-26 -1.478288247429487e-19 6.452522098902282e-26 -1.435261136812775e-18 -0.9999999999999998 -1.311287815856832e-13 -8.13486353236201e-26 -1.086795179863803e-18 
    9.737202553865038e-26 -1.449126153522436e-19 3.948263655723201e-26 -4.650189310775085e-20 4.714965694970466e-26 -2.068356926745618e-20 4.588962633367142e-26 -1.113825445798664e-20 
    3.995176542667831e-26 -5.605514877376422e-21 5.318734049745849e-26 -3.527327752471684e-21 
    5.058343682890572e-26 -4.422253984673195e-20 3.215651034011408e-26 -1.926408051372938e-19 -8.13486353236201e-26 -1.086795179863803e-18 -0.9999999999999998 -1.235792650182321e-13 
    6.680737808270343e-26 -1.046403647164369e-18 1.006826783020578e-25 -1.511647463004323e-19 3.687532230989921e-26 -4.757925231019927e-20 3.328199397600539e-26 -2.121858321960984e-20 
    4.572992338198472e-26 -9.468516243860882e-21 4.756483226414112e-26 -5.489493232815952e-21 
    9.486890963395556e-27 -1.86426286707286e-20 6.541005257563206e-26 -5.77456736869773e-20 9.737202553865038e-26 -1.449126153522436e-19 6.680737808270343e-26 -1.046403647164369e-18 
    -0.9999999999999998 -1.333492276349335e-13 5.031806994085368e-26 -1.061632083157325e-18 3.791723831624652e-26 -1.556543526586645e-19 6.892221213081421e-26 -4.941559986556446e-20 
    8.017119780469411e-26 -1.822493989078988e-20 1.970821463796399e-26 -9.34878638473096e-21 
    6.94878423418212e-26 -1.023367576817509e-20 9.064047010713024e-26 -2.613933265825647e-20 3.948263655723201e-26 -4.650189310775085e-20 1.006826783020578e-25 -1.511647463004323e-19 
    5.031806994085368e-26 -1.061632083157325e-18 -0.9999999999999998 -1.337933168447836e-13 1.31957844883583e-25 -1.221668797704211e-18 -5.222178755360235e-26 -1.726102284352421e-19 
    5.715190296286478e-26 -4.532705876711819e-20 5.595763144655135e-26 -1.920029403040098e-20 
    5.821640208763978e-26 -6.216576225183142e-21 6.270191385144735e-26 -1.40701085389216e-20 4.714965694970466e-26 -2.068356926745618e-20 3.687532230989921e-26 -4.757925231019927e-20 
    3.791723831624652e-26 -1.556543526586645e-19 1.31957844883583e-25 -1.221668797704211e-18 -0.9999999999999998 -1.36901941313734e-13 2.500157147066964e-25 -1.337671742139989e-18 
    4.010661040291278e-26 -1.582022546651851e-19 6.151949693627355e-26 -4.718862314584903e-20 
    5.413624071924682e-26 -4.092118357541405e-21 7.16360507292604e-26 -8.534861480069051e-21 4.588962633367142e-26 -1.113825445798664e-20 3.328199397600539e-26 -2.121858321960984e-20 
    6.892221213081421e-26 -4.941559986556446e-20 -5.222178755360235e-26 -1.726102284352421e-19 2.500157147066964e-25 -1.337671742139989e-18 -0.9999999999999998 -1.466719039304354e-13 
    2.71232531372364e-25 -1.204254770809503e-18 1.033622773778738e-25 -1.632788903121692e-19 
    4.6229070635259e-26 -2.377615378150288e-21 5.987656825542727e-26 -4.667673373836655e-21 3.995176542667831e-26 -5.605514877376422e-21 4.572992338198472e-26 -9.468516243860882e-21 
    8.017119780469411e-26 -1.822493989078988e-20 5.715190296286478e-26 -4.532705876711819e-20 4.010661040291278e-26 -1.582022546651851e-19 2.71232531372364e-25 -1.204254770809503e-18 
    -1 -1.404546549925345e-13 1.487771100940846e-24 -1.040866810936434e-18 
    4.815308994119301e-26 -1.660507313137019e-21 5.915205637283174e-26 -3.116815839483993e-21 5.318734049745849e-26 -3.527327752471684e-21 4.756483226414112e-26 -5.489493232815952e-21 
    1.970821463796399e-26 -9.34878638473096e-21 5.595763144655135e-26 -1.920029403040098e-20 6.151949693627355e-26 -4.718862314584903e-20 1.033622773778738e-25 -1.632788903121692e-19 
    1.487771100940846e-24 -1.040866810936434e-18 -1 -1.480041715599856e-13 
1258925.411794167 -0.9999999999999999 -1.247877581759787e-13 9.814202749752116e-26 -1.350777158930395e-18 3.800907816748535e-26 -1.393287623744203e-19 4.34231654123015e-26 -4.167968279225347e-20 
    4.034748912601383e-26 -1.757065081775621e-20 6.313213014311986e-26 -9.645212232195762e-21 5.308993090072035e-26 -5.859113692821102e-21 5.013502429217634e-26 -3.856815083187161e-21 
    4.871712991642984e-26 -2.240898166667038e-21 4.527764584570675e-26 -1.565021170371224e-21 
    9.814202749752116e-26 -1.350777158930395e-18 -0.9999999999999999 -1.432408081011541e-13 5.805548799739915e-26 -1.352732175324023e-18 9.949572387615206e-26 -1.815636931798041e-19 
    6.672244798284914e-26 -5.442520672871821e-20 6.399171920336183e-26 -2.463628409119236e-20 5.763830800041803e-26 -1.326105606080388e-20 6.717115925380051e-26 -8.044095964422008e-21 
    4.742465538535935e-26 -4.399283476476191e-21 5.859140370926522e-26 -2.937593500304376e-21 
    3.800907816748535e-26 -1.393287623744203e-19 5.805548799739915e-26 -1.352732175324023e-18 -0.9999999999999999 -1.235383466216654e-13 1.231196619395015e-25 -1.024303249076027e-18 
    1.087762332000378e-25 -1.365800316200455e-19 5.415960512030557e-26 -4.382801739945425e-20 5.404587521393358e-26 -1.949425152049734e-20 5.230704807769304e-26 -1.049779839739636e-20 
