! Touchstone file version 1.1
! Written by SMATRIXIO.2.8.1
! Date : Wed Jun  4 15:11:42 2025
# Hz S RI R 50.000000	
! Port[1] in
1000000 -1 -1.496053104113151e-13 
1061009.227150982 -1 -1.413428334122346e-13 
1122018.454301963 -1 -1.333358732524018e-13 
1190471.933048065 -1 -1.257997110674825e-13 
1258925.411794167 -1 -1.188357221237061e-13 
1335731.47820846 -1 -1.124770347719806e-13 
1412537.544622754 -1 -1.059124488369996e-13 
1498715.368541934 -1 -1.000425368961788e-13 
1584893.192461113 -1 -9.439456936184782e-14 
1681586.301250017 -1 -8.894030664992726e-14 
1778279.410038922 -1 -8.412924849715562e-14 
1850607.045015574 -1 -8.094670087262613e-14 
1922934.679992226 -1 -7.828216561352576e-14 
1995262.314968878 -1 -7.498027166285112e-14 
2076415.256168698 -1 -7.250900588547494e-14 
2157568.197368518 -1 -6.94003814165245e-14 
2238721.138568338 -1 -6.682623745475254e-14 
2329776.236215418 -1 -6.451540010817381e-14 
2420831.333862498 -1 -6.185086484907344e-14 
2511886.431509578 -1 -5.955894681607057e-14 
2588510.556448297 -1 -5.785406196042288e-14 
2665134.681387015 -1 -5.607770512102262e-14 
2741758.806325733 -1 -5.474543749147244e-14 
2818382.931264451 -1 -5.308196722115232e-14 
2904356.613490433 -1 -5.1636813022522e-14 
2990330.295716414 -1 -4.986045618312175e-14 
3076303.977942395 -1 -4.852818855357156e-14 
3162277.660168376 -1 -4.731044060266169e-14 
3258741.71821022 -1 -4.586365329447118e-14 
3355205.776252064 -1 -4.4531385664921e-14 
3451669.834293908 -1 -4.364320724522087e-14 
3548133.892335751 -1 -4.216547456752355e-14 
3634721.454975594 -1 -4.142276119597056e-14 
3721309.017615438 -1 -4.053458277627043e-14 
3807896.580255281 -1 -3.920231514672025e-14 
3894484.142895125 -1 -3.831413672702012e-14 
3981071.705534968 -1 -3.758001876205226e-14 
4078224.548729899 -1 -3.653777988761987e-14 
4175377.391924831 -1 -3.564960146791974e-14 
4272530.235119763 -1 -3.520551225806968e-14 
4369683.078314694 -1 -3.431733383836956e-14 
4466835.921509625 -1 -3.349322697157322e-14 
4557675.323970141 -1 -3.298506620881937e-14 
4648514.726430656 -1 -3.209688778911924e-14 
4739354.12889117 -1 -3.165279857926918e-14 
4830193.531351686 -1 -3.120870936941912e-14 
4921032.933812201 -1 -3.032053094971899e-14 
5011872.336272716 -1 -2.985086995531564e-14 
5113795.822211176 -1 -2.943235253001887e-14 
5215719.308149638 -1 -2.898826332016881e-14 
5317642.794088099 -1 -2.810008490046868e-14 
5419566.28002656 -1 -2.765599569061862e-14 
5521489.76596502 -1 -2.721190648076855e-14 
5623413.251903482 -1 -2.660461584753557e-14 
5721436.136603259 -1 -2.632372806106843e-14 
5819459.021303036 -1 -2.587963885121837e-14 
5917481.906002813 -1 -2.54355496413683e-14 
6015504.790702591 -1 -2.499146043151824e-14 
6113527.675402367 -1 -2.454737122166818e-14 
6211550.560102144 -1 -2.410328201181812e-14 
6309573.444801922 -1 -2.371138882719023e-14 
6403658.755841537 -1 -2.321510359211799e-14 
6497744.066881152 -1 -2.277101438226793e-14 
6591829.377920769 -1 -2.277101438226793e-14 
6685914.688960385 -1 -2.232692517241787e-14 
6780000 -1 -2.206618720613332e-14 
6879819.281280454 -1 -2.143874675271774e-14 
6979638.562560911 -1 -2.143874675271774e-14 
7079457.843841366 -1 -2.113279753091351e-14 
7175438.344219304 -1 -2.055056833301762e-14 
7271418.844597241 -1 -2.055056833301762e-14 
7367399.344975178 -1 -2.010647912316755e-14 
7463379.845353115 -1 -2.010647912316755e-14 
7559360.345731052 -1 -1.966238991331749e-14 
7655340.846108989 -1 -1.966238991331749e-14 
7751321.346486926 -1 -1.921830070346743e-14 
7847301.846864863 -1 -1.921830070346743e-14 
7943282.347242801 -1 -1.883462561786458e-14 
8040205.050652265 -1 -1.877421149361737e-14 
8137127.754061728 -1 -1.83301222837673e-14 
8234050.457471192 -1 -1.83301222837673e-14 
8330973.160880655 -1 -1.788603307391724e-14 
8427895.864290118 -1 -1.788603307391724e-14 
8524818.567699583 -1 -1.788603307391724e-14 
8621741.271109046 -1 -1.744194386406718e-14 
8718663.97451851 -1 -1.744194386406718e-14 
8815586.677927975 -1 -1.699785465421711e-14 
8912509.381337438 -1 -1.678637774417468e-14 
9011372.164852215 -1 -1.699785465421711e-14 
9110234.94836699 -1 -1.655376544436705e-14 
9209097.731881768 -1 -1.655376544436705e-14 
9307960.515396545 -1 -1.610967623451699e-14 
9406823.29891132 -1 -1.610967623451699e-14 
9505686.082426097 -1 -1.566558702466693e-14 
9604548.865940873 -1 -1.566558702466693e-14 
9703411.64945565 -1 -1.522149781481686e-14 
9802274.432970427 -1 -1.522149781481686e-14 
9901137.216485202 -1 -1.47774086049668e-14 
9999999.99999998 -1 -1.496087490394849e-14 
10101682.04525162 -1 -1.47774086049668e-14 
10203364.09050325 -1 -1.433331939511674e-14 
10305046.13575489 -1 -1.433331939511674e-14 
10406728.18100652 -1 -1.433331939511674e-14 
10508410.22625816 -1 -1.433331939511674e-14 
10610092.27150979 -1 -1.433331939511674e-14 
10711774.31676143 -1 -1.388923018526668e-14 
10813456.36201307 -1 -1.388923018526668e-14 
10915138.4072647 -1 -1.388923018526668e-14 
11016820.45251634 -1 -1.344514097541661e-14 
11118502.49776797 -1 -1.344514097541661e-14 
11220184.54301961 -1 -1.333389378429373e-14 
11317975.22694261 -1 -1.344514097541661e-14 
11415765.91086561 -1 -1.300105176556655e-14 
11513556.59478862 -1 -1.300105176556655e-14 
11611347.27871162 -1 -1.300105176556655e-14 
11709137.96263462 -1 -1.300105176556655e-14 
11806928.64655763 -1 -1.255696255571649e-14 
11904719.33048063 -1 -1.255696255571649e-14 
12002510.01440363 -1 -1.255696255571649e-14 
12100300.69832663 -1 -1.211287334586643e-14 
12198091.38224963 -1 -1.211287334586643e-14 
12295882.06617264 -1 -1.211287334586643e-14 
12393672.75009564 -1 -1.211287334586643e-14 
12491463.43401864 -1 -1.166878413601636e-14 
12589254.11794164 -1 -1.18838453339755e-14 
12686328.70614748 -1 -1.166878413601636e-14 
12783403.29435332 -1 -1.166878413601636e-14 
12880477.88255915 -1 -1.166878413601636e-14 
12977552.47076499 -1 -1.166878413601636e-14 
13074627.05897082 -1 -1.166878413601636e-14 
13171701.64717666 -1 -1.12246949261663e-14 
13268776.23538249 -1 -1.12246949261663e-14 
13365850.82358833 -1 -1.12246949261663e-14 
13462925.41179417 -1 -1.12246949261663e-14 
13560000 -1 -1.103309356247529e-14 
13654229.24103792 -1 -1.12246949261663e-14 
13748458.48207584 -1 -1.12246949261663e-14 
13842687.72311375 -1 -1.078060571631624e-14 
13936916.96415167 -1 -1.078060571631624e-14 
14031146.20518959 -1 -1.078060571631624e-14 
14125375.44622751 -1 -1.059148829100547e-14 
14226761.12142654 -1 -1.078060571631624e-14 
14328146.79662558 -1 -1.078060571631624e-14 
14429532.47182461 -1 -1.033651650646618e-14 
14530918.14702365 -1 -1.033651650646618e-14 
14632303.82222268 -1 -1.033651650646618e-14 
14733689.49742172 -1 -1.033651650646618e-14 
14835075.17262075 -1 -1.033651650646618e-14 
14936460.84781978 -1 -1.033651650646618e-14 
15037846.52301882 -1 -9.892427296616113e-15 
15139232.19821785 -1 -9.892427296616113e-15 
15240617.87341689 -1 -9.892427296616113e-15 
15342003.54861593 -1 -9.892427296616113e-15 
15443389.22381496 -1 -9.892427296616113e-15 
15544774.89901399 -1 -9.892427296616113e-15 
15646160.57421303 -1 -9.44833808676605e-15 
15747546.24941206 -1 -9.44833808676605e-15 
15848931.9246111 -1 -9.439673862776588e-15 
15950714.14438889 -1 -9.44833808676605e-15 
16052496.36416668 -1 -9.44833808676605e-15 
16154278.58394448 -1 -9.44833808676605e-15 
16256060.80372227 -1 -9.44833808676605e-15 
16357843.02350007 -1 -9.004248876915987e-15 
16459625.24327786 -1 -9.004248876915987e-15 
16561407.46305566 -1 -9.004248876915987e-15 
16663189.68283345 -1 -9.004248876915987e-15 
16764971.90261124 -1 -9.004248876915987e-15 
16866754.12238904 -1 -9.004248876915987e-15 
16968536.34216683 -1 -9.004248876915987e-15 
17070318.56194462 -1 -9.004248876915987e-15 
17172100.78172242 -1 -9.004248876915987e-15 
17273883.00150021 -1 -9.004248876915987e-15 
17375665.221278 -1 -8.560159667065925e-15 
17477447.4410558 -1 -8.560159667065925e-15 
17579229.66083359 -1 -8.560159667065925e-15 
17681011.88061139 -1 -8.560159667065925e-15 
17782794.10038918 -1 -8.413118171572213e-15 
17881422.69353916 -1 -8.560159667065925e-15 
17980051.28668914 -1 -8.560159667065925e-15 
18078679.87983912 -1 -8.560159667065925e-15 
18177308.4729891 -1 -8.560159667065925e-15 
18275937.06613908 -1 -8.560159667065925e-15 
18374565.65928906 -1 -8.116070457215862e-15 
18473194.25243904 -1 -8.116070457215862e-15 
18571822.84558902 -1 -8.116070457215862e-15 
18670451.438739 -1 -8.116070457215862e-15 
18769080.03188898 -1 -8.116070457215862e-15 
18867708.62503896 -1 -8.116070457215862e-15 
18966337.21818894 -1 -8.116070457215862e-15 
19064965.81133892 -1 -8.116070457215862e-15 
19163594.4044889 -1 -8.116070457215862e-15 
19262222.99763888 -1 -8.116070457215862e-15 
19360851.59078886 -1 -8.116070457215862e-15 
19459480.18393884 -1 -7.6719812473658e-15 
19558108.77708882 -1 -7.6719812473658e-15 
19656737.3702388 -1 -7.6719812473658e-15 
19755365.96338878 -1 -7.6719812473658e-15 
19853994.55653876 -1 -7.6719812473658e-15 
19952623.14968874 -1 -7.498199447014416e-15 
20000000 -1 -7.480437393025856e-15 
