! Touchstone file version 1.1
! Written by SMATRIXIO.2.8.1
! Date : Wed Jun  4 14:54:32 2025
# Hz S RI R 50.000000	
! Port[1] in
! Port[2] in 2
1000000 -1 -1.447600618930776e-13 1.197408479962539e-24 -1.624719947231165e-18 1.197408479962539e-24 -1.624719947231165e-18 -1 -1.700898684283175e-13 
1061009.227150982 -1 -1.36901941313734e-13 8.798224337660951e-25 -1.536376710201219e-18 8.798224337660951e-25 -1.536376710201219e-18 -1 -1.608827586456374e-13 
1122018.454301963 -1 -1.290175409916093e-13 5.912718335390368e-25 -1.448033473171215e-18 5.912718335390368e-25 -1.448033473171215e-18 -1 -1.515927548324419e-13 
1190471.933048065 -1 -1.218029081788319e-13 -2.1025263305079e-25 -1.369297611750581e-18 -2.1025263305079e-25 -1.369297611750581e-18 -1 -1.431191902516349e-13 
1258925.411794167 -1 -1.14987004293506e-13 -9.23297634147201e-25 -1.290561750329529e-18 -9.23297634147201e-25 -1.290561750329529e-18 -1 -1.351071849187136e-13 
1335731.47820846 -1 -1.089243210931801e-13 -9.991867431921733e-25 -1.220387830220514e-18 -9.991867431921733e-25 -1.220387830220514e-18 -1 -1.280201571167328e-13 
1412537.544622754 -1 -1.024822754384703e-13 -1.060574805615879e-24 -1.150213910111498e-18 -1.060574805615879e-24 -1.150213910111498e-18 -1 -1.204144053268785e-13 
1498715.368541934 -1 -9.648982321737832e-14 -8.304083528279185e-25 -1.08767207252661e-18 -8.304083528279185e-25 -1.08767207252661e-18 -1 -1.138093024015308e-13 
1584893.192461113 -1 -9.133742404853959e-14 -6.200794661160041e-25 -1.025130234941679e-18 -6.200794661160041e-25 -1.025130234941679e-18 -1 -1.073194516933068e-13 
1681586.301250017 -1 -8.627577139082688e-14 -3.541455465717507e-25 -9.693891647542414e-19 -3.541455465717507e-25 -9.693891647542414e-19 -1 -1.01374804525729e-13 
1778279.410038922 -1 -8.140456486288535e-14 -1.149171918361088e-25 -9.136480945667384e-19 -1.149171918361088e-25 -9.136480945667384e-19 -1 -9.564856201053461e-14 
1850607.045015574 -1 -7.828216561352576e-14 -6.064498872438316e-26 -8.805283330374419e-19 -6.064498872438316e-26 -8.805283330374419e-19 -1 -9.20489311188777e-14 
1922934.679992226 -1 -7.561763035442538e-14 -1.014214449376606e-26 -8.474085715081426e-19 -1.014214449376606e-26 -8.474085715081426e-19 -1 -8.894030664992726e-14 
1995262.314968878 -1 -7.255189493122708e-14 3.659134034081448e-26 -8.142888099788404e-19 3.659134034081448e-26 -8.142888099788404e-19 -1 -8.524687061359089e-14 
2076415.256168698 -1 -6.984447062637457e-14 -3.661341880056912e-26 -7.847712634193259e-19 -3.661341880056912e-26 -7.847712634193259e-19 -1 -8.227896850217632e-14 
2157568.197368518 -1 -6.717993536727419e-14 -1.044110678986441e-25 -7.552537168598051e-19 -1.044110678986441e-25 -7.552537168598051e-19 -1 -7.917034403322588e-14 
2238721.138568338 -1 -6.466194436139068e-14 -1.668016068290571e-25 -7.257361703002786e-19 -1.668016068290571e-25 -7.257361703002786e-19 -1 -7.597635341084011e-14 
2329776.236215418 -1 -6.22949540589235e-14 -9.405309543024821e-26 -6.99428339722501e-19 -9.405309543024821e-26 -6.99428339722501e-19 -1 -7.339718430517507e-14 
2420831.333862498 -1 -5.963041879982313e-14 -2.632235139834573e-26 -6.731205091447164e-19 -2.632235139834573e-26 -6.731205091447164e-19 -1 -7.028855983622463e-14 
2511886.431509578 -1 -5.763001854705411e-14 3.639062554207994e-26 -6.468126785669252e-19 3.639062554207994e-26 -6.468126785669252e-19 -1 -6.771399624397931e-14 
2588510.556448297 -1 -5.563361591117256e-14 5.295702077385244e-26 -6.292276115679033e-19 5.295702077385244e-26 -6.292276115679033e-19 -1 -6.5847667737724e-14 
2665134.681387015 -1 -5.430134828162237e-14 6.854215204754211e-26 -6.11642544568881e-19 6.854215204754211e-26 -6.11642544568881e-19 -1 -6.407131089832375e-14 
2741758.806325733 -1 -5.296908065207219e-14 8.314601946152099e-26 -5.940574775698583e-19 8.314601946152099e-26 -5.940574775698583e-19 -1 -6.22949540589235e-14 
2818382.931264451 -1 -5.136280807205037e-14 9.676862318222248e-26 -5.764724105708352e-19 9.676862318222248e-26 -5.764724105708352e-19 -1 -6.03501626735033e-14 
2904356.613490433 -1 -4.986045618312175e-14 7.930031783874472e-26 -5.607217196741759e-19 7.930031783874472e-26 -5.607217196741759e-19 -1 -5.8742240380123e-14 
2990330.295716414 -1 -4.852818855357156e-14 6.266484505377484e-26 -5.44971028777516e-19 6.266484505377484e-26 -5.44971028777516e-19 -1 -5.696588354072275e-14 
3076303.977942395 -1 -4.719592092402137e-14 4.686220454336903e-26 -5.292203378808558e-19 4.686220454336903e-26 -5.292203378808558e-19 -1 -5.563361591117256e-14 
3162277.660168376 -1 -4.578601541993884e-14 3.189239642862311e-26 -5.134696469841951e-19 3.189239642862311e-26 -5.134696469841951e-19 -1 -5.378893845138668e-14 
3258741.71821022 -1 -4.4531385664921e-14 3.320415272039844e-26 -4.995097910452156e-19 3.320415272039844e-26 -4.995097910452156e-19 -1 -5.252499144222212e-14 
3355205.776252064 -1 -4.319911803537081e-14 3.439412529972154e-26 -4.85549935106236e-19 3.439412529972154e-26 -4.85549935106236e-19 -1 -5.074863460282187e-14 
3451669.834293908 -1 -4.231093961567068e-14 3.546231417000187e-26 -4.715900791672566e-19 3.546231417000187e-26 -4.715900791672566e-19 -1 -4.941636697327169e-14 
3548133.892335751 -1 -4.080682919139584e-14 3.64087193498596e-26 -4.576302232282771e-19 3.64087193498596e-26 -4.576302232282771e-19 -1 -4.793944185078541e-14 
3634721.454975594 -1 -4.009049356642037e-14 4.052878138843573e-26 -4.476768481330056e-19 4.052878138843573e-26 -4.476768481330056e-19 -1 -4.719592092402137e-14 
3721309.017615438 -1 -3.920231514672025e-14 4.443042503596903e-26 -4.37723473037734e-19 4.443042503596903e-26 -4.37723473037734e-19 -1 -4.586365329447118e-14 
3807896.580255281 -1 -3.831413672702012e-14 4.811365036882336e-26 -4.277700979424623e-19 4.811365036882336e-26 -4.277700979424623e-19 -1 -4.497547487477106e-14 
3894484.142895125 -1 -3.742595830731999e-14 5.157845719482054e-26 -4.178167228471906e-19 5.157845719482054e-26 -4.178167228471906e-19 -1 -4.364320724522087e-14 
3981071.705534968 -1 -3.636912478430203e-14 5.482484565364497e-26 -4.078633477519189e-19 5.482484565364497e-26 -4.078633477519189e-19 -1 -4.272607251796064e-14 
4078224.548729899 -1 -3.564960146791974e-14 4.820167252881794e-26 -3.98992367716344e-19 4.820167252881794e-26 -3.98992367716344e-19 -1 -4.186685040582062e-14 
4175377.391924831 -1 -3.476142304821962e-14 4.181998757940362e-26 -3.90121387680769e-19 4.181998757940362e-26 -3.90121387680769e-19 -1 -4.09786719861205e-14 
4272530.235119763 -1 -3.431733383836956e-14 3.56797909381302e-26 -3.812504076451939e-19 3.56797909381302e-26 -3.812504076451939e-19 -1 -3.964640435657031e-14 
4369683.078314694 -1 -3.342915541866943e-14 2.978108243371874e-26 -3.723794276096187e-19 2.978108243371874e-26 -3.723794276096187e-19 -1 -3.875822593687018e-14 
4466835.921509625 -1 -3.241401657546971e-14 2.412386220471494e-26 -3.635084475740434e-19 2.412386220471494e-26 -3.635084475740434e-19 -1 -3.807965220966611e-14 
4557675.323970141 -1 -3.209688778911924e-14 2.751302109699431e-26 -3.569199020015162e-19 2.751302109699431e-26 -3.569199020015162e-19 -1 -3.698186909746993e-14 
4648514.726430656 -1 -3.120870936941912e-14 3.076091343867227e-26 -3.503313564289891e-19 3.076091343867227e-26 -3.503313564289891e-19 -1 -3.653777988761987e-14 
4739354.12889117 -1 -3.076462015956906e-14 3.386753925854256e-26 -3.437428108564619e-19 3.386753925854256e-26 -3.437428108564619e-19 -1 -3.609369067776981e-14 
4830193.531351686 -1 -3.032053094971899e-14 3.683289863146844e-26 -3.371542652839347e-19 3.683289863146844e-26 -3.371542652839347e-19 -1 -3.520551225806968e-14 
4921032.933812201 -1 -2.943235253001887e-14 3.965699140626042e-26 -3.305657197114074e-19 3.965699140626042e-26 -3.305657197114074e-19 -1 -3.431733383836956e-14 
5011872.336272716 -1 -2.888902267398123e-14 4.233981763604015e-26 -3.239771741388802e-19 4.233981763604015e-26 -3.239771741388802e-19 -1 -3.39385257509786e-14 
5113795.822211176 -1 -2.854417411031874e-14 4.420844635220313e-26 -3.181051228578949e-19 4.420844635220313e-26 -3.181051228578949e-19 -1 -3.342915541866943e-14 
5215719.308149638 -1 -2.810008490046868e-14 4.597975550086309e-26 -3.122330715769096e-19 4.597975550086309e-26 -3.122330715769096e-19 -1 -3.254097699896931e-14 
5317642.794088099 -1 -2.721190648076855e-14 4.76537451052246e-26 -3.063610202959243e-19 4.76537451052246e-26 -3.063610202959243e-19 -1 -3.209688778911924e-14 
5419566.28002656 -1 -2.676781727091849e-14 4.923041509856571e-26 -3.00488969014939e-19 4.923041509856571e-26 -3.00488969014939e-19 -1 -3.165279857926918e-14 
5521489.76596502 -1 -2.632372806106843e-14 5.070976561563416e-26 -2.946169177339537e-19 5.070976561563416e-26 -2.946169177339537e-19 -1 -3.076462015956906e-14 
5623413.251903482 -1 -2.574736856118187e-14 5.209179656726452e-26 -2.887448664529683e-19 5.209179656726452e-26 -2.887448664529683e-19 -1 -3.02477429081079e-14 
5721436.136603259 -1 -2.54355496413683e-14 5.421574683480233e-26 -2.842590348283303e-19 5.421574683480233e-26 -2.842590348283303e-19 -1 -2.987644173986893e-14 
5819459.021303036 -1 -2.499146043151824e-14 5.624711975621807e-26 -2.797732032036923e-19 5.624711975621807e-26 -2.797732032036923e-19 -1 -2.943235253001887e-14 
5917481.906002813 -1 -2.454737122166818e-14 5.818591535265143e-26 -2.752873715790541e-19 5.818591535265143e-26 -2.752873715790541e-19 -1 -2.898826332016881e-14 
6015504.790702591 -1 -2.410328201181812e-14 6.00321336241024e-26 -2.70801539954416e-19 6.00321336241024e-26 -2.70801539954416e-19 -1 -2.810008490046868e-14 
6113527.675402367 -1 -2.365919280196805e-14 6.178577457057099e-26 -2.663157083297779e-19 6.178577457057099e-26 -2.663157083297779e-19 -1 -2.765599569061862e-14 
6211550.560102144 -1 -2.321510359211799e-14 6.344683819205718e-26 -2.618298767051399e-19 6.344683819205718e-26 -2.618298767051399e-19 -1 -2.721190648076855e-14 
6309573.444801922 -1 -2.294736637478345e-14 6.501532451226489e-26 -2.573440450805017e-19 6.501532451226489e-26 -2.573440450805017e-19 -1 -2.695832923651833e-14 
6403658.755841537 -1 -2.232692517241787e-14 6.314982452996857e-26 -2.537728930534659e-19 6.314982452996857e-26 -2.537728930534659e-19 -1 -2.632372806106843e-14 
6497744.066881152 -1 -2.232692517241787e-14 6.131143572325783e-26 -2.5020174102643e-19 6.131143572325783e-26 -2.5020174102643e-19 -1 -2.587963885121837e-14 
6591829.377920769 -1 -2.18828359625678e-14 5.950015801366582e-26 -2.466305889993942e-19 5.950015801366582e-26 -2.466305889993942e-19 -1 -2.587963885121837e-14 
6685914.688960385 -1 -2.18828359625678e-14 5.771599151151144e-26 -2.430594369723583e-19 5.771599151151144e-26 -2.430594369723583e-19 -1 -2.54355496413683e-14 
6780000 -1 -2.135517603248968e-14 5.595893613489008e-26 -2.394882849453224e-19 5.595893613489008e-26 -2.394882849453224e-19 -1 -2.50878404477166e-14 
6879819.281280454 -1 -2.099465754286768e-14 5.539704221636582e-26 -2.361115195643629e-19 5.539704221636582e-26 -2.361115195643629e-19 -1 -2.454737122166818e-14 
6979638.562560911 -1 -2.099465754286768e-14 5.482865185452948e-26 -2.327347541834033e-19 5.482865185452948e-26 -2.327347541834033e-19 -1 -2.454737122166818e-14 
7079457.843841366 -1 -2.045186180772014e-14 5.425376506482465e-26 -2.293579888024437e-19 5.425376506482465e-26 -2.293579888024437e-19 -1 -2.402663621497337e-14 
7175438.344219304 -1 -2.010647912316755e-14 5.53933724346117e-26 -2.265865888402228e-19 5.53933724346117e-26 -2.265865888402228e-19 -1 -2.365919280196805e-14 
7271418.844597241 -1 -2.010647912316755e-14 5.648906595023935e-26 -2.238151888780018e-19 5.648906595023935e-26 -2.238151888780018e-19 -1 -2.365919280196805e-14 
7367399.344975178 -1 -1.966238991331749e-14 5.754084572262199e-26 -2.210437889157809e-19 5.754084572262199e-26 -2.210437889157809e-19 -1 -2.321510359211799e-14 
7463379.845353115 -1 -1.966238991331749e-14 5.854871165298108e-26 -2.182723889535599e-19 5.854871165298108e-26 -2.182723889535599e-19 -1 -2.277101438226793e-14 
7559360.345731052 -1 -1.921830070346743e-14 5.951266383886445e-26 -2.155009889913389e-19 5.951266383886445e-26 -2.155009889913389e-19 -1 -2.277101438226793e-14 
7655340.846108989 -1 -1.921830070346743e-14 6.0432702183955e-26 -2.12729589029118e-19 6.0432702183955e-26 -2.12729589029118e-19 -1 -2.232692517241787e-14 
7751321.346486926 -1 -1.877421149361737e-14 6.130882678333905e-26 -2.09958189066897e-19 6.130882678333905e-26 -2.09958189066897e-19 -1 -2.18828359625678e-14 
7847301.846864863 -1 -1.877421149361737e-14 6.214103754316107e-26 -2.07186789104676e-19 6.214103754316107e-26 -2.07186789104676e-19 -1 -2.18828359625678e-14 
7943282.347242801 -1 -1.822774101587475e-14 6.292933454189952e-26 -2.04415389142455e-19 6.292933454189952e-26 -2.04415389142455e-19 -1 -2.141376205875789e-14 
8040205.050652265 -1 -1.788603307391724e-14 6.082059974111842e-26 -2.021923761179645e-19 6.082059974111842e-26 -2.021923761179645e-19 -1 -2.099465754286768e-14 
8137127.754061728 -1 -1.788603307391724e-14 5.87431857360261e-26 -1.99969363093474e-19 5.87431857360261e-26 -1.99969363093474e-19 -1 -2.099465754286768e-14 
8234050.457471192 -1 -1.744194386406718e-14 5.669709254076891e-26 -1.977463500689834e-19 5.669709254076891e-26 -1.977463500689834e-19 -1 -2.055056833301762e-14 
8330973.160880655 -1 -1.744194386406718e-14 5.468232015534682e-26 -1.955233370444929e-19 5.468232015534682e-26 -1.955233370444929e-19 -1 -2.055056833301762e-14 
8427895.864290118 -1 -1.744194386406718e-14 5.269886857975984e-26 -1.933003240200023e-19 5.269886857975984e-26 -1.933003240200023e-19 -1 -2.055056833301762e-14 
8524818.567699583 -1 -1.699785465421711e-14 5.074673777158027e-26 -1.910773109955117e-19 5.074673777158027e-26 -1.910773109955117e-19 -1 -2.010647912316755e-14 
8621741.271109046 -1 -1.699785465421711e-14 4.882592781615712e-26 -1.888542979710211e-19 4.882592781615712e-26 -1.888542979710211e-19 -1 -2.010647912316755e-14 
8718663.97451851 -1 -1.655376544436705e-14 4.693643867056906e-26 -1.866312849465304e-19 4.693643867056906e-26 -1.866312849465304e-19 -1 -1.966238991331749e-14 
8815586.677927975 -1 -1.610967623451699e-14 4.50782703348161e-26 -1.844082719220397e-19 4.50782703348161e-26 -1.844082719220397e-19 -1 -1.921830070346743e-14 
8912509.381337438 -1 -1.624549127480738e-14 4.325142279350769e-26 -1.821852588975491e-19 4.325142279350769e-26 -1.821852588975491e-19 -1 -1.908503551422976e-14 
9011372.164852215 -1 -1.610967623451699e-14 4.427021330536292e-26 -1.80384109921679e-19 4.427021330536292e-26 -1.80384109921679e-19 -1 -1.921830070346743e-14 
9110234.94836699 -1 -1.566558702466693e-14 4.526011922217889e-26 -1.785829609458089e-19 4.526011922217889e-26 -1.785829609458089e-19 -1 -1.877421149361737e-14 
9209097.731881768 -1 -1.566558702466693e-14 4.622114047963945e-26 -1.767818119699387e-19 4.622114047963945e-26 -1.767818119699387e-19 -1 -1.877421149361737e-14 
9307960.515396545 -1 -1.566558702466693e-14 4.715327711779796e-26 -1.749806629940686e-19 4.715327711779796e-26 -1.749806629940686e-19 -1 -1.83301222837673e-14 
9406823.29891132 -1 -1.522149781481686e-14 4.805652917510798e-26 -1.731795140181985e-19 4.805652917510798e-26 -1.731795140181985e-19 -1 -1.83301222837673e-14 
9505686.082426097 -1 -1.522149781481686e-14 4.89308965742624e-26 -1.713783650423284e-19 4.89308965742624e-26 -1.713783650423284e-19 -1 -1.788603307391724e-14 
9604548.865940873 -1 -1.47774086049668e-14 4.977637939176847e-26 -1.695772160664583e-19 4.977637939176847e-26 -1.695772160664583e-19 -1 -1.788603307391724e-14 
9703411.64945565 -1 -1.47774086049668e-14 5.059297755191883e-26 -1.677760670905881e-19 5.059297755191883e-26 -1.677760670905881e-19 -1 -1.744194386406718e-14 
9802274.432970427 -1 -1.47774086049668e-14 5.138069109276711e-26 -1.659749181147179e-19 5.138069109276711e-26 -1.659749181147179e-19 -1 -1.744194386406718e-14 
9901137.216485202 -1 -1.433331939511674e-14 5.213952005076724e-26 -1.641737691388479e-19 5.213952005076724e-26 -1.641737691388479e-19 -1 -1.699785465421711e-14 
9999999.99999998 -1 -1.447880933044928e-14 5.28694643347397e-26 -1.623726201629777e-19 5.28694643347397e-26 -1.623726201629777e-19 -1 -1.700955579566928e-14 
10101682.04525162 -1 -1.433331939511674e-14 5.326788797142266e-26 -1.609011149163238e-19 5.326788797142266e-26 -1.609011149163238e-19 -1 -1.699785465421711e-14 
10203364.09050325 -1 -1.433331939511674e-14 5.36502604190854e-26 -1.594296096696699e-19 5.36502604190854e-26 -1.594296096696699e-19 -1 -1.655376544436705e-14 
10305046.13575489 -1 -1.388923018526668e-14 5.401658169559968e-26 -1.57958104423016e-19 5.401658169559968e-26 -1.57958104423016e-19 -1 -1.655376544436705e-14 
10406728.18100652 -1 -1.388923018526668e-14 5.436685180096548e-26 -1.564865991763621e-19 5.436685180096548e-26 -1.564865991763621e-19 -1 -1.655376544436705e-14 
10508410.22625816 -1 -1.388923018526668e-14 5.47010707351828e-26 -1.550150939297082e-19 5.47010707351828e-26 -1.550150939297082e-19 -1 -1.610967623451699e-14 
10610092.27150979 -1 -1.344514097541661e-14 5.501923849825165e-26 -1.535435886830544e-19 5.501923849825165e-26 -1.535435886830544e-19 -1 -1.610967623451699e-14 
10711774.31676143 -1 -1.344514097541661e-14 5.532135509017203e-26 -1.520720834364004e-19 5.532135509017203e-26 -1.520720834364004e-19 -1 -1.610967623451699e-14 
10813456.36201307 -1 -1.344514097541661e-14 5.560742051094394e-26 -1.506005781897466e-19 5.560742051094394e-26 -1.506005781897466e-19 -1 -1.566558702466693e-14 
10915138.4072647 -1 -1.344514097541661e-14 5.587743476056737e-26 -1.491290729430927e-19 5.587743476056737e-26 -1.491290729430927e-19 -1 -1.566558702466693e-14 
11016820.45251634 -1 -1.344514097541661e-14 5.613139783904233e-26 -1.476575676964388e-19 5.613139783904233e-26 -1.476575676964388e-19 -1 -1.566558702466693e-14 
11118502.49776797 -1 -1.300105176556655e-14 5.636930974636882e-26 -1.461860624497849e-19 5.636930974636882e-26 -1.461860624497849e-19 -1 -1.522149781481686e-14 
11220184.54301961 -1 -1.290425239189109e-14 5.659117049660654e-26 -1.44714557203131e-19 5.659117049660654e-26 -1.44714557203131e-19 -1 -1.515978254846056e-14 
11317975.22694261 -1 -1.300105176556655e-14 5.634527174579349e-26 -1.435904296655779e-19 5.634527174579349e-26 -1.435904296655779e-19 -1 -1.522149781481686e-14 
11415765.91086561 -1 -1.300105176556655e-14 5.609634023719657e-26 -1.424663021280247e-19 5.609634023719657e-26 -1.424663021280247e-19 -1 -1.47774086049668e-14 
11513556.59478862 -1 -1.255696255571649e-14 5.584437595675612e-26 -1.413421745904716e-19 5.584437595675612e-26 -1.413421745904716e-19 -1 -1.47774086049668e-14 
11611347.27871162 -1 -1.255696255571649e-14 5.558937890447208e-26 -1.402180470529185e-19 5.558937890447208e-26 -1.402180470529185e-19 -1 -1.47774086049668e-14 
11709137.96263462 -1 -1.255696255571649e-14 5.533134908034449e-26 -1.390939195153654e-19 5.533134908034449e-26 -1.390939195153654e-19 -1 -1.47774086049668e-14 
11806928.64655763 -1 -1.255696255571649e-14 5.507028648437335e-26 -1.379697919778122e-19 5.507028648437335e-26 -1.379697919778122e-19 -1 -1.433331939511674e-14 
11904719.33048063 -1 -1.211287334586643e-14 5.480619111655863e-26 -1.368456644402591e-19 5.480619111655863e-26 -1.368456644402591e-19 -1 -1.433331939511674e-14 
12002510.01440363 -1 -1.211287334586643e-14 5.453906294676411e-26 -1.35721536902706e-19 5.453906294676411e-26 -1.35721536902706e-19 -1 -1.433331939511674e-14 
12100300.69832663 -1 -1.211287334586643e-14 5.426890203551189e-26 -1.345974093651529e-19 5.426890203551189e-26 -1.345974093651529e-19 -1 -1.388923018526668e-14 
12198091.38224963 -1 -1.211287334586643e-14 5.399570835241611e-26 -1.334732818275997e-19 5.399570835241611e-26 -1.334732818275997e-19 -1 -1.388923018526668e-14 
12295882.06617264 -1 -1.211287334586643e-14 5.371948189747675e-26 -1.323491542900466e-19 5.371948189747675e-26 -1.323491542900466e-19 -1 -1.388923018526668e-14 
12393672.75009564 -1 -1.166878413601636e-14 5.344022267069383e-26 -1.312250267524935e-19 5.344022267069383e-26 -1.312250267524935e-19 -1 -1.388923018526668e-14 
