! Touchstone file version 1.1
! Written by SMATRIXIO.2.8.1
! Date : Wed Jun  4 14:54:38 2025
# Hz S RI R 50.000000	
! Port[1] in
! Port[2] in 2
! Port[3] in 3
1000000 -1 -1.530056350049658e-13 1.705639279786787e-25 -1.372571551037735e-18 6.110043352261576e-26 -1.839926291678205e-19 
    1.705639279786787e-25 -1.372571551037735e-18 -1 -1.822994063438916e-13 2.750722682515185e-25 -1.472258356994181e-18 
    6.110043352261576e-26 -1.839926291678205e-19 2.750722682515185e-25 -1.472258356994181e-18 -1 -1.480817205986689e-13 
1061009.227150982 -1 -1.444514578811851e-13 5.280654780048623e-26 -1.297938306821283e-18 8.742442631395733e-26 -1.739881084280269e-19 
    5.280654780048623e-26 -1.297938306821283e-18 -1 -1.72429078101739e-13 6.653658739134709e-25 -1.392204674855409e-18 
    8.742442631395733e-26 -1.739881084280269e-19 6.653658739134709e-25 -1.392204674855409e-18 -1 -1.400105657826845e-13 
1122018.454301963 -1 -1.363664157025254e-13 -5.247498684392698e-26 -1.223305062604821e-18 1.103390246161732e-25 -1.639835876882299e-19 
    -5.247498684392698e-26 -1.223305062604821e-18 -1 -1.624745169332544e-13 1.009054547574569e-24 -1.312150992716541e-18 
    1.103390246161732e-25 -1.639835876882299e-19 1.009054547574569e-24 -1.312150992716541e-18 -1 -1.319779722913349e-13 
1190471.933048065 -1 -1.289083355364329e-13 3.034858406213433e-25 -1.156788173579575e-18 1.012381117256221e-25 -1.550669651629541e-19 
    3.034858406213433e-25 -1.156788173579575e-18 -1 -1.537773312880364e-13 3.896032836487704e-25 -1.240803271643465e-18 
    1.012381117256221e-25 -1.550669651629541e-19 3.896032836487704e-25 -1.240803271643465e-18 -1 -1.249115326477823e-13 
1258925.411794167 -1 -1.215366960105001e-13 6.188383460759695e-25 -1.090271284554232e-18 9.249384985502224e-26 -1.46150342637678e-19 
    6.188383460759695e-25 -1.090271284554232e-18 -1 -1.448055656287031e-13 -1.649193906758949e-25 -1.169455550570112e-18 
    9.249384985502224e-26 -1.46150342637678e-19 -1.649193906758949e-25 -1.169455550570112e-18 -1 -1.176254916093057e-13 
1335731.47820846 -1 -1.15141570031081e-13 2.445866701621152e-25 -1.030989133530801e-18 6.86175543828253e-26 -1.382035651676512e-19 
    2.445866701621152e-25 -1.030989133530801e-18 -1 -1.36901941313734e-13 1.801448655564675e-25 -1.105867072504006e-18 
    6.86175543828253e-26 -1.382035651676512e-19 1.801448655564675e-25 -1.105867072504006e-18 -1 -1.115888563522805e-13 
1412537.544622754 -1 -1.083196942603071e-13 -9.049546613919139e-26 -9.717069825072479e-19 4.690868775257364e-26 -1.302567876976206e-19 
    -9.049546613919139e-26 -9.717069825072479e-19 -1 -1.290580962617326e-13 4.865573015689367e-25 -1.042278594437804e-18 
    4.690868775257364e-26 -1.302567876976206e-19 4.865573015689367e-25 -1.042278594437804e-18 -1 -1.048338297573663e-13 
1498715.368541934 -1 -1.022629829454291e-13 1.965368983082225e-25 -9.188706194727175e-19 -2.034260112143206e-26 -1.231740366195167e-19 
    1.965368983082225e-25 -9.188706194727175e-19 -1 -1.218029081788319e-13 8.240090524722136e-26 -9.856050350534271e-19 
    -2.034260112143206e-26 -1.231740366195167e-19 8.240090524722136e-26 -9.856050350534271e-19 -1 -9.91543584764787e-14 
1584893.192461113 -1 -9.654002907936924e-14 4.511256184003487e-25 -8.660342564381073e-19 -8.015306294733743e-26 -1.160912855413801e-19 
    4.511256184003487e-25 -8.660342564381073e-19 -1 -1.15023149324876e-13 -2.783190175142342e-25 -9.289314756689019e-19 
    -8.015306294733743e-26 -1.160912855413801e-19 -2.783190175142342e-25 -9.289314756689019e-19 -1 -9.343324910993596e-14 
1681586.301250017 -1 -9.116075269917757e-14 9.710296437635097e-26 -8.189440699503076e-19 -2.365858821150843e-28 -1.097788121138506e-19 
    9.710296437635097e-26 -8.189440699503076e-19 -1 -1.089243210931801e-13 -6.051554763078058e-26 -8.784212324279948e-19 
    -2.365858821150843e-28 -1.097788121138506e-19 -6.051554763078058e-26 -8.784212324279948e-19 -1 -8.805212823022713e-14 
1778279.410038922 -1 -8.60413915083131e-14 -2.190272775968373e-25 -7.718538834623708e-19 7.099044029422991e-26 -1.03466338686269e-19 
    -2.190272775968373e-25 -7.718538834623708e-19 -1 -1.025144897527118e-13 1.339804013548628e-25 -8.279109891870392e-19 
    7.099044029422991e-26 -1.03466338686269e-19 1.339804013548628e-25 -8.279109891870392e-19 -1 -8.327247089637993e-14 
1850607.045015574 -1 -8.272305771202638e-14 -1.830845559393678e-26 -7.438743754650235e-19 7.165978239921605e-26 -9.971574818150745e-20 
    -1.830845559393678e-26 -7.438743754650235e-19 -1 -9.871026926662864e-14 1.395075732477514e-25 -7.978994776067116e-19 
    7.165978239921605e-26 -9.971574818150745e-20 1.395075732477514e-25 -7.978994776067116e-19 -1 -8.005852245292601e-14 
1922934.679992226 -1 -7.961443324307594e-14 1.679082794622574e-25 -7.158948674676262e-19 7.208519018825666e-26 -9.596515767674593e-20 
    1.679082794622574e-25 -7.158948674676262e-19 -1 -9.515755558782814e-14 1.442536016058114e-25 -7.678879660263838e-19 
    7.208519018825666e-26 -9.596515767674593e-20 1.442536016058114e-25 -7.678879660263838e-19 -1 -7.739398719382563e-14 
1995262.314968878 -1 -7.668447094932912e-14 3.396229275549271e-25 -6.879153594701843e-19 7.226666370898616e-26 -9.221456717198448e-20 
    3.396229275549271e-25 -6.879153594701843e-19 -1 -9.136613517026182e-14 1.482184860739916e-25 -7.378764544460561e-19 
    7.226666370898616e-26 -9.221456717198448e-20 1.482184860739916e-25 -7.378764544460561e-19 -1 -7.421666782287309e-14 
2076415.256168698 -1 -7.384127351502513e-14 2.763933907132785e-25 -6.629786110442597e-19 5.456459894293898e-26 -8.887181250963885e-20 
    2.763933907132785e-25 -6.629786110442597e-19 -1 -8.805212823022713e-14 1.447994184996565e-25 -7.111285939165595e-19 
    5.456459894293898e-26 -8.887181250963885e-20 1.447994184996565e-25 -7.111285939165595e-19 -1 -7.162082746577482e-14 
2157568.197368518 -1 -7.117673825592475e-14 2.169942543632678e-25 -6.380418626183295e-19 3.799713053782419e-26 -8.552905784728998e-20 
    2.169942543632678e-25 -6.380418626183295e-19 -1 -8.449941455142663e-14 1.412333717701731e-25 -6.843807333870628e-19 
    3.799713053782419e-26 -8.552905784728998e-20 1.412333717701731e-25 -6.843807333870628e-19 -1 -6.895629220667444e-14 
2238721.138568338 -1 -6.834510664897378e-14 1.614255181496318e-25 -6.131051141923942e-19 2.256425853205585e-26 -8.21863031849381e-20 
    1.614255181496318e-25 -6.131051141923942e-19 -1 -8.143015367033905e-14 1.375203461257457e-25 -6.576328728575661e-19 
    2.256425853205585e-26 -8.21863031849381e-20 1.375203461257457e-25 -6.576328728575661e-19 -1 -6.614567480644187e-14 
2329776.236215418 -1 -6.5847667737724e-14 2.112438645395549e-25 -5.908802646722784e-19 2.960937932454368e-26 -7.920706854099012e-20 
    2.112438645395549e-25 -5.908802646722784e-19 -1 -7.828216561352576e-14 1.055925087008565e-25 -6.337939135123486e-19 
    2.960937932454368e-26 -7.920706854099012e-20 1.055925087008565e-25 -6.337939135123486e-19 -1 -6.362722168847369e-14 
2420831.333862498 -1 -6.362722168847369e-14 2.568743689504399e-25 -5.686554151521588e-19 3.606298902706554e-26 -7.622783389704156e-20 
    2.568743689504399e-25 -5.686554151521588e-19 -1 -7.561763035442538e-14 7.569147421265195e-26 -6.099549541671297e-19 
    3.606298902706554e-26 -7.622783389704156e-20 7.569147421265195e-26 -6.099549541671297e-19 -1 -6.140677563922338e-14 
2511886.431509578 -1 -6.091264040161677e-14 2.983170311078922e-25 -5.464305656320361e-19 4.192508759876597e-26 -7.324859925309253e-20 
    2.983170311078922e-25 -5.464305656320361e-19 -1 -7.257470085143465e-14 4.781724265619784e-26 -5.861159948219095e-19 
    4.192508759876597e-26 -7.324859925309253e-20 4.781724265619784e-26 -5.861159948219095e-19 -1 -5.895239473137818e-14 
2588510.556448297 -1 -5.918632958997306e-14 2.511657691858511e-25 -5.315745815895705e-19 4.092433913951365e-26 -7.125716450408994e-20 
    2.511657691858511e-25 -5.315745815895705e-19 -1 -7.028855983622463e-14 5.651512055872523e-26 -5.701811038360712e-19 
    4.092433913951365e-26 -7.125716450408994e-20 5.651512055872523e-26 -5.701811038360712e-19 -1 -5.696588354072275e-14 
2665134.681387015 -1 -5.785406196042288e-14 2.061966650017934e-25 -5.167185975471011e-19 3.991581670080708e-26 -6.926572975508734e-20 
    2.061966650017934e-25 -5.167185975471011e-19 -1 -6.851220299682438e-14 6.465417456161374e-26 -5.542462128502331e-19 
    3.991581670080708e-26 -6.926572975508734e-20 6.465417456161374e-26 -5.542462128502331e-19 -1 -5.563361591117256e-14 
2741758.806325733 -1 -5.607770512102262e-14 1.634097185006866e-25 -5.01862613504628e-19 3.889952030174879e-26 -6.727429500608476e-20 
    1.634097185006866e-25 -5.01862613504628e-19 -1 -6.673584615742413e-14 7.223440466449681e-26 -5.383113218643948e-19 
    3.889952030174879e-26 -6.727429500608476e-20 7.223440466449681e-26 -5.383113218643948e-19 -1 -5.430134828162237e-14 
2818382.931264451 -1 -5.428844790038522e-14 1.228049299007259e-25 -4.870066294621514e-19 3.787544995415055e-26 -6.528286025708217e-20 
    1.228049299007259e-25 -4.870066294621514e-19 -1 -6.46822702142921e-14 7.925581083788554e-26 -5.223764308785562e-19 
    3.787544995415055e-26 -6.528286025708217e-20 7.925581083788554e-26 -5.223764308785562e-19 -1 -5.254137710799587e-14 
2904356.613490433 -1 -5.296908065207219e-14 1.03402638566554e-25 -4.737662572127607e-19 4.818515351805352e-26 -6.350799045618154e-20 
    1.03402638566554e-25 -4.737662572127607e-19 -1 -6.273904326877356e-14 7.141041030776075e-26 -5.081744231764659e-19 
    4.818515351805352e-26 -6.350799045618154e-20 7.141041030776075e-26 -5.081744231764659e-19 -1 -5.119272381267194e-14 
2990330.295716414 -1 -5.1636813022522e-14 8.489820570312827e-26 -4.605258849633691e-19 5.786104625043317e-26 -6.173312065527941e-20 
    8.489820570312827e-26 -4.605258849633691e-19 -1 -6.140677563922338e-14 6.388308424964558e-26 -4.939724154743755e-19 
    5.786104625043317e-26 -6.173312065527941e-20 6.388308424964558e-26 -4.939724154743755e-19 -1 -4.986045618312175e-14 
3076303.977942395 -1 -4.986045618312175e-14 6.729163152587865e-26 -4.472855127139768e-19 6.690312818178231e-26 -5.995825085437587e-20 
    6.729163152587865e-26 -4.472855127139768e-19 -1 -5.963041879982313e-14 5.667383247050761e-26 -4.797704077722851e-19 
    6.690312818178231e-26 -5.995825085437587e-20 5.667383247050761e-26 -4.797704077722851e-19 -1 -4.80840993437215e-14 
3162277.660168376 -1 -4.838463011623901e-14 5.058291596466177e-26 -4.340451404645841e-19 7.531139929937865e-26 -5.818338105347114e-20 
    5.058291596466177e-26 -4.340451404645841e-19 -1 -5.764813400486763e-14 4.9782655055732e-26 -4.655684000701946e-19 
    7.531139929937865e-26 -5.818338105347114e-20 4.9782655055732e-26 -4.655684000701946e-19 -1 -4.682755163406347e-14 
3258741.71821022 -1 -4.719592092402137e-14 6.329024811720109e-26 -4.222446015309431e-19 6.990469650998219e-26 -5.660152914979021e-20 
    6.329024811720109e-26 -4.222446015309431e-19 -1 -5.607770512102262e-14 5.508617067450505e-26 -4.529108514809841e-19 
    6.990469650998219e-26 -5.660152914979021e-20 5.508617067450505e-26 -4.529108514809841e-19 -1 -4.541956408462112e-14 
3355205.776252064 -1 -4.586365329447118e-14 7.521044576993906e-26 -4.104440625973018e-19 6.468575308691684e-26 -5.501967724610884e-20 
    7.521044576993906e-26 -4.104440625973018e-19 -1 -5.430134828162237e-14 6.001760005086792e-26 -4.402533028917735e-19 
    6.468575308691684e-26 -5.501967724610884e-20 6.001760005086792e-26 -4.402533028917735e-19 -1 -4.408729645507093e-14 
3451669.834293908 -1 -4.4531385664921e-14 8.634350879930518e-26 -3.986435236636602e-19 5.965456905358809e-26 -5.343782534242706e-20 
    8.634350879930518e-26 -3.986435236636602e-19 -1 -5.296908065207219e-14 6.457694311732752e-26 -4.275957543025629e-19 
    5.965456905358809e-26 -5.343782534242706e-20 6.457694311732752e-26 -4.275957543025629e-19 -1 -4.319911803537081e-14 
3548133.892335751 -1 -4.312284698449262e-14 9.668943736230291e-26 -3.868429847300183e-19 5.481114440040329e-26 -5.185597343874488e-20 
    9.668943736230291e-26 -3.868429847300183e-19 -1 -5.137895351171051e-14 6.87642000748325e-26 -4.149382057133525e-19 
    5.481114440040329e-26 -5.185597343874488e-20 6.87642000748325e-26 -4.149382057133525e-19 -1 -4.173509931970806e-14 
3634721.454975594 -1 -4.231093961567068e-14 8.982926395269218e-26 -3.789818342698306e-19 5.316587173544877e-26 -5.078049501749696e-20 
    8.982926395269218e-26 -3.789818342698306e-19 -1 -5.030454539297181e-14 5.981978257943647e-26 -4.070485498258265e-19 
    5.316587173544877e-26 -5.078049501749696e-20 5.981978257943647e-26 -4.070485498258265e-19 -1 -4.09786719861205e-14 
3721309.017615438 -1 -4.142276119597056e-14 8.317217583404584e-26 -3.711206838096427e-19 5.154213829795167e-26 -4.970501659624901e-20 
    8.317217583404584e-26 -3.711206838096427e-19 -1 -4.897227776342162e-14 5.117141223405755e-26 -3.991588939383002e-19 
    5.154213829795167e-26 -4.970501659624901e-20 5.117141223405755e-26 -3.991588939383002e-19 -1 -4.009049356642037e-14 
3807896.580255281 -1 -4.009049356642037e-14 7.671817319557025e-26 -3.632595333494547e-19 4.99399440626243e-26 -4.862953817500103e-20 
    7.671817319557025e-26 -3.632595333494547e-19 -1 -4.80840993437215e-14 4.281908885143429e-26 -3.912692380507738e-19 
    4.99399440626243e-26 -4.862953817500103e-20 4.281908885143429e-26 -3.912692380507738e-19 -1 -3.875822593687018e-14 
3894484.142895125 -1 -3.920231514672025e-14 7.046725587420024e-26 -3.553983828892665e-19 4.835928905130136e-26 -4.755405975375304e-20 
    7.046725587420024e-26 -3.553983828892665e-19 -1 -4.675183171417131e-14 3.476281260707698e-26 -3.833795821632472e-19 
    4.835928905130136e-26 -4.755405975375304e-20 3.476281260707698e-26 -3.833795821632472e-19 -1 -3.787004751717006e-14 
3981071.705534968 -1 -3.843325543694832e-14 6.441942405628992e-26 -3.475372324290784e-19 4.680017323919134e-26 -4.647858133250501e-20 
    6.441942405628992e-26 -3.475372324290784e-19 -1 -4.581147409167948e-14 2.700258329560073e-26 -3.754899262757205e-19 
    4.680017323919134e-26 -4.647858133250501e-20 2.700258329560073e-26 -3.754899262757205e-19 -1 -3.719076997566219e-14 
4078224.548729899 -1 -3.742595830731999e-14 6.459430974165128e-26 -3.399783472349022e-19 4.672844068977779e-26 -4.546767385284771e-20 
    6.459430974165128e-26 -3.399783472349022e-19 -1 -4.497547487477106e-14 3.535092216468686e-26 -3.673230849023939e-19 
    4.672844068977779e-26 -4.546767385284771e-20 3.535092216468686e-26 -3.673230849023939e-19 -1 -3.609369067776981e-14 
4175377.391924831 -1 -3.653777988761987e-14 6.469911564978669e-26 -3.32419462040726e-19 4.661463473473923e-26 -4.445676637319044e-20 
    6.469911564978669e-26 -3.32419462040726e-19 -1 -4.408729645507093e-14 4.3301921652137e-26 -3.591562435290671e-19 
    4.661463473473923e-26 -4.445676637319044e-20 4.3301921652137e-26 -3.591562435290671e-19 -1 -3.520551225806968e-14 
4272530.235119763 -1 -3.609369067776981e-14 6.473384190321848e-26 -3.248605768465498e-19 4.645875538715703e-26 -4.344585889353318e-20 
    6.473384190321848e-26 -3.248605768465498e-19 -1 -4.275502882552075e-14 5.085558179132943e-26 -3.5098940215574e-19 
    4.645875538715703e-26 -4.344585889353318e-20 5.085558179132943e-26 -3.5098940215574e-19 -1 -3.476142304821962e-14 
4369683.078314694 -1 -3.520551225806968e-14 6.469848835600118e-26 -3.173016916523737e-19 4.626080262751291e-26 -4.243495141387597e-20 
    6.469848835600118e-26 -3.173016916523737e-19 -1 -4.186685040582062e-14 5.80119025822642e-26 -3.428225607824129e-19 
    4.626080262751291e-26 -4.243495141387597e-20 5.80119025822642e-26 -3.428225607824129e-19 -1 -3.387324462851949e-14 
4466835.921509625 -1 -3.425367495851618e-14 6.459305514478923e-26 -3.097428064581975e-19 4.602077646705225e-26 -4.142404393421876e-20 
    6.459305514478923e-26 -3.097428064581975e-19 -1 -4.082951925591652e-14 6.477088404648165e-26 -3.346557194090856e-19 
    4.602077646705225e-26 -4.142404393421876e-20 6.477088404648165e-26 -3.346557194090856e-19 -1 -3.314630863034432e-14 
4557675.323970141 -1 -3.342915541866943e-14 5.864498312153848e-26 -3.04128747955152e-19 4.556672773226172e-26 -4.067323323539749e-20 
    5.864498312153848e-26 -3.04128747955152e-19 -1 -4.009049356642037e-14 6.647002335280982e-26 -3.285901210433953e-19 
    4.556672773226172e-26 -4.067323323539749e-20 6.647002335280982e-26 -3.285901210433953e-19 -1 -3.254097699896931e-14 
4648514.726430656 -1 -3.298506620881937e-14 5.287328511432712e-26 -2.985146894521064e-19 4.509864684133359e-26 -3.992242253657625e-20 
    5.287328511432712e-26 -2.985146894521064e-19 -1 -3.964640435657031e-14 6.806309072654744e-26 -3.225245226777049e-19 
    4.509864684133359e-26 -3.992242253657625e-20 6.806309072654744e-26 -3.225245226777049e-19 -1 -3.165279857926918e-14 
4739354.12889117 -1 -3.254097699896931e-14 4.727796112908933e-26 -2.929006309490606e-19 4.461653381078965e-26 -3.917161183775502e-20 
    4.727796112908933e-26 -2.929006309490606e-19 -1 -3.875822593687018e-14 6.955008607588612e-26 -3.164589243120146e-19 
    4.461653381078965e-26 -3.917161183775502e-20 6.955008607588612e-26 -3.164589243120146e-19 -1 -3.120870936941912e-14 
4830193.531351686 -1 -3.165279857926918e-14 4.185901116582512e-26 -2.872865724460147e-19 4.412038863159861e-26 -3.842080113893379e-20 
    4.185901116582512e-26 -2.872865724460147e-19 -1 -3.787004751717006e-14 7.093100954270868e-26 -3.103933259463242e-19 
    4.412038863159861e-26 -3.842080113893379e-20 7.093100954270868e-26 -3.103933259463242e-19 -1 -3.076462015956906e-14 
4921032.933812201 -1 -3.076462015956906e-14 3.661643522453449e-26 -2.816725139429688e-19 4.361021129539605e-26 -3.766999044011258e-20 
    3.661643522453449e-26 -2.816725139429688e-19 -1 -3.742595830731999e-14 7.220586105540027e-26 -3.043277275806338e-19 
    4.361021129539605e-26 -3.766999044011258e-20 7.220586105540027e-26 -3.043277275806338e-19 -1 -2.987644173986893e-14 
5011872.336272716 -1 -3.052861994077179e-14 3.155023333250756e-26 -2.760584554399228e-19 4.308600181617561e-26 -3.691917974129138e-20 
    3.155023333250756e-26 -2.760584554399228e-19 -1 -3.638934733551531e-14 7.337464064682526e-26 -2.982621292149434e-19 
    4.308600181617561e-26 -3.691917974129138e-20 7.337464064682526e-26 -2.982621292149434e-19 -1 -2.954167865755457e-14 
5113795.822211176 -1 -2.987644173986893e-14 3.578334989523755e-26 -2.710549290887786e-19 4.357731689990642e-26 -3.625002065039565e-20 
    3.578334989523755e-26 -2.710549290887786e-19 -1 -3.609369067776981e-14 6.731918251495831e-26 -2.928561636103179e-19 
    4.357731689990642e-26 -3.625002065039565e-20 6.731918251495831e-26 -2.928561636103179e-19 -1 -2.898826332016881e-14 
5215719.308149638 -1 -2.943235253001887e-14 3.983907262674022e-26 -2.660514027376342e-19 4.402166174104155e-26 -3.558086155949992e-20 
    3.983907262674022e-26 -2.660514027376342e-19 -1 -3.520551225806968e-14 6.143818663921317e-26 -2.874501980056921e-19 
    4.402166174104155e-26 -3.558086155949992e-20 6.143818663921317e-26 -2.874501980056921e-19 -1 -2.854417411031874e-14 
5317642.794088099 -1 -2.854417411031874e-14 4.371740138046388e-26 -2.610478763864898e-19 4.441903634248295e-26 -3.49117024686042e-20 
    4.371740138046388e-26 -2.610478763864898e-19 -1 -3.431733383836956e-14 5.573165292409915e-26 -2.820442324010663e-19 
    4.441903634248295e-26 -3.49117024686042e-20 5.573165292409915e-26 -2.820442324010663e-19 -1 -2.765599569061862e-14 
5419566.28002656 -1 -2.810008490046868e-14 4.741833621659487e-26 -2.560443500353455e-19 4.476944070423068e-26 -3.424254337770851e-20 
    4.741833621659487e-26 -2.560443500353455e-19 -1 -3.387324462851949e-14 5.019958149606945e-26 -2.766382667964405e-19 
    4.476944070423068e-26 -3.424254337770851e-20 5.019958149606945e-26 -2.766382667964405e-19 -1 -2.721190648076855e-14 
5521489.76596502 -1 -2.765599569061862e-14 5.09418771908754e-26 -2.51040823684201e-19 4.507287482628467e-26 -3.357338428681284e-20 
    5.09418771908754e-26 -2.51040823684201e-19 -1 -3.342915541866943e-14 4.484197229129725e-26 -2.712323011918144e-19 
