! Touchstone file version 1.1
! Written by SMATRIXIO.2.8.1
! Date : Wed Jun  4 14:54:44 2025
# Hz S RI R 50.000000	
! Port[1] in
! Port[2] in 2
! Port[3] in 3
! Port[4] in 4
1000000 -0.9999999999999999 -1.610347713815999e-13 -1.557944434544904e-24 -1.732615961945581e-18 3.833903781432687e-25 -1.699315082713591e-19 1.043164551936597e-25 -5.702151276363373e-20 
    -1.557944434544904e-24 -1.732615961945581e-18 -0.9999999999999999 -1.721866498202847e-13 -3.587314915090553e-25 -1.757926837865564e-18 2.124997467418783e-25 -2.681702975102281e-19 
    3.833903781432687e-25 -1.699315082713591e-19 -3.587314915090553e-25 -1.757926837865564e-18 -0.9999999999999999 -1.746637436886159e-13 1.488499878816563e-25 -1.446150857779589e-18 
    1.043164551936597e-25 -5.702151276363373e-20 2.124997467418783e-25 -2.681702975102281e-19 1.488499878816563e-25 -1.446150857779589e-18 -0.9999999999999999 -1.298732856513151e-13 
1061009.227150982 -0.9999999999999998 -1.520009744486361e-13 -1.022651586242622e-24 -1.638406041124908e-18 2.096168883674504e-25 -1.606915215398503e-19 7.438908764326995e-26 -5.392100578049542e-20 
    -1.022651586242622e-24 -1.638406041124908e-18 -0.9999999999999998 -1.626591154850376e-13 7.347943965485384e-26 -1.66234028893361e-18 2.340314710931101e-25 -2.535885923086038e-19 
    2.096168883674504e-25 -1.606915215398503e-19 7.347943965485384e-26 -1.66234028893361e-18 -0.9999999999999998 -1.648795615342879e-13 1.041360702823412e-26 -1.367516755303716e-18 
    7.438908764326995e-26 -5.392100578049542e-20 2.340314710931101e-25 -2.535885923086038e-19 1.041360702823412e-26 -1.367516755303716e-18 -0.9999999999999998 -1.22691086598532e-13 
1122018.454301963 -0.9999999999999999 -1.435223909778303e-13 -5.391763706737432e-25 -1.54419612030408e-18 5.343039893481807e-26 -1.514515348081731e-19 4.725111568430892e-26 -5.082049879734234e-20 
    -5.391763706737432e-25 -1.54419612030408e-18 -0.9999999999999999 -1.534615131939942e-13 4.582283048896047e-25 -1.566753740001557e-18 2.517581704146806e-25 -2.390068871069789e-19 
    5.343039893481807e-26 -1.514515348081731e-19 4.582283048896047e-25 -1.566753740001557e-18 -0.9999999999999999 -1.55669225359611e-13 -1.130330031575921e-25 -1.288882652827831e-18 
    4.725111568430892e-26 -5.082049879734234e-20 2.517581704146806e-25 -2.390068871069789e-19 -1.130330031575921e-25 -1.288882652827831e-18 -0.9999999999999999 -1.157496875070407e-13 
1190471.933048065 -0.9999999999999998 -1.355696736841838e-13 -1.893578352018451e-25 -1.460231760435093e-18 8.809959566584397e-26 -1.432165871385379e-19 8.996483350691808e-26 -4.805715403448353e-20 
    -1.893578352018451e-25 -1.460231760435093e-18 -0.9999999999999998 -1.448955470910351e-13 1.355853790362725e-25 -1.481562002485192e-18 1.423735622193608e-25 -2.260108593421991e-19 
    8.809959566584397e-26 -1.432165871385379e-19 1.355853790362725e-25 -1.481562002485192e-18 -0.9999999999999998 -1.471159931402854e-13 -1.836560729463848e-25 -1.21880063682363e-18 
    8.996483350691808e-26 -4.805715403448353e-20 1.423735622193608e-25 -2.260108593421991e-19 -1.836560729463848e-25 -1.21880063682363e-18 -0.9999999999999998 -1.093684103030301e-13 
1258925.411794167 -0.9999999999999999 -1.279144656242712e-13 1.236025998260536e-25 -1.376267400566031e-18 1.184477403123813e-25 -1.349816394688955e-19 1.274708986984321e-25 -4.529380927159181e-20 
    1.236025998260536e-25 -1.376267400566031e-18 -0.9999999999999999 -1.367727175989022e-13 -1.528181795775746e-25 -1.396370264968765e-18 4.399424679635478e-26 -2.130148315773718e-19 
    1.184477403123813e-25 -1.349816394688955e-19 -1.528181795775746e-25 -1.396370264968765e-18 -0.9999999999999999 -1.387403430963055e-13 -2.454505663458902e-25 -1.148718620819426e-18 
    1.274708986984321e-25 -4.529380927159181e-20 4.399424679635478e-26 -2.130148315773718e-19 -2.454505663458902e-25 -1.148718620819426e-18 -0.9999999999999999 -1.031620175784529e-13 
1335731.47820846 -0.9999999999999998 -1.209147297591317e-13 2.299637101715455e-26 -1.301433128268255e-18 1.796346706058536e-25 -1.276419887527721e-19 7.624645153817675e-26 -4.283094188584406e-20 
    2.299637101715455e-26 -1.301433128268255e-18 -0.9999999999999998 -1.293524247462829e-13 -1.988991876724706e-25 -1.320443041831182e-18 6.647928744146192e-26 -2.01432353486707e-19 
    1.796346706058536e-25 -1.276419887527721e-19 -1.988991876724706e-25 -1.320443041831182e-18 -0.9999999999999998 -1.311287815856832e-13 -2.588973548062397e-25 -1.086257470536133e-18 
    7.624645153817675e-26 -4.283094188584406e-20 6.647928744146192e-26 -2.01432353486707e-19 -2.588973548062397e-25 -1.086257470536133e-18 -0.9999999999999998 -9.782209084692849e-14 
1412537.544622754 -0.9999999999999999 -1.140038874961563e-13 -6.68127721698395e-26 -1.226598855970471e-18 2.330441824911851e-25 -1.203023380366239e-19 3.011590147233924e-26 -4.036807450004142e-20 
    -6.68127721698395e-26 -1.226598855970471e-18 -0.9999999999999999 -1.218988128702928e-13 -2.387251501091103e-25 -1.244515818693598e-18 8.61034226519596e-26 -1.8984987539604e-19 
    2.330441824911851e-25 -1.203023380366239e-19 -2.387251501091103e-25 -1.244515818693598e-18 -0.9999999999999999 -1.236524608730872e-13 -2.692628735098195e-25 -1.023796320252841e-18 
    3.011590147233924e-26 -4.036807450004142e-20 8.61034226519596e-26 -1.8984987539604e-19 -2.692628735098195e-25 -1.023796320252841e-18 -0.9999999999999999 -9.194324492532715e-14 
1498715.368541934 -0.9999999999999998 -1.075920534636299e-13 -2.710832069868058e-26 -1.159903310883961e-18 8.747951829823471e-26 -1.13760920373709e-19 5.545184688624742e-26 -3.817306572110626e-20 
    -2.710832069868058e-26 -1.159903310883961e-18 -0.9999999999999998 -1.151415700310809e-13 -1.417896266663755e-25 -1.176845852614856e-18 7.644155334380359e-26 -1.795268621927196e-19 
    8.747951829823471e-26 -1.13760920373709e-19 -1.417896266663755e-25 -1.176845852614856e-18 -0.9999999999999998 -1.169179268704812e-13 -1.254942628528052e-25 -9.68127710928567e-19 
    5.545184688624742e-26 -3.817306572110626e-20 7.644155334380359e-26 -1.795268621927196e-19 -1.254942628528052e-25 -9.68127710928567e-19 -0.9999999999999998 -8.671986060067692e-14 
1584893.192461113 -0.9999999999999999 -1.016060716595426e-13 8.44783378604991e-27 -1.093207765797449e-18 -4.280207410972533e-26 -1.072195027106271e-19 7.768575927251824e-26 -3.597805694215655e-20 
    8.44783378604991e-27 -1.093207765797449e-18 -0.9999999999999999 -1.086424313210792e-13 -5.450911310305278e-26 -1.109175886536106e-18 6.735239954837629e-26 -1.692038489893988e-19 
    -4.280207410972533e-26 -1.072195027106271e-19 -5.450911310305278e-26 -1.109175886536106e-18 -0.9999999999999999 -1.102053717360601e-13 3.424344575623241e-27 -9.124591016042738e-19 
    7.768575927251824e-26 -3.597805694215655e-20 6.735239954837629e-26 -1.692038489893988e-19 3.424344575623241e-27 -9.124591016042738e-19 -0.9999999999999999 -8.194450331768156e-14 
1681586.301250017 -0.9999999999999999 -9.604573400752825e-14 -6.283275418648048e-26 -1.033765158836605e-18 4.487603998456757e-26 -1.013894711050589e-19 5.227411220739284e-26 -3.402178622726245e-20 
    -6.283275418648048e-26 -1.033765158836605e-18 -0.9999999999999999 -1.027070721552792e-13 -9.626894865512622e-26 -1.048865007558848e-18 6.281223530439397e-26 -1.60003496955216e-19 
    4.487603998456757e-26 -1.013894711050589e-19 -9.626894865512622e-26 -1.048865007558848e-18 -0.9999999999999999 -1.040393397848294e-13 3.201741003706356e-26 -8.628447255139376e-19 
    5.227411220739284e-26 -3.402178622726245e-20 6.281223530439397e-26 -1.60003496955216e-19 3.201741003706356e-26 -8.628447255139376e-19 -0.9999999999999999 -7.739398719382562e-14 
1778279.410038922 -0.9999999999999999 -9.055650666802552e-14 -1.259687473686894e-25 -9.743225518757565e-19 1.227385856503384e-25 -9.55594394994232e-20 2.929905718701894e-26 -3.206551551235141e-20 
    -1.259687473686894e-25 -9.743225518757565e-19 -0.9999999999999999 -9.682766883894028e-14 -1.328854567687869e-25 -9.885541285815893e-19 5.837303358498114e-26 -1.508031449210332e-19 
    1.227385856503384e-25 -9.55594394994232e-20 -1.328854567687869e-25 -9.885541285815893e-19 -0.9999999999999999 -9.822064097672868e-14 5.73008066713419e-26 -8.132303494236005e-19 
    2.929905718701894e-26 -3.206551551235141e-20 5.837303358498114e-26 -1.508031449210332e-19 5.73008066713419e-26 -8.132303494236005e-19 -0.9999999999999999 -7.303311546267938e-14 
1850607.045015574 -0.9999999999999998 -8.716394981052698e-14 -2.256575991838423e-26 -9.390035036883829e-19 9.718481557432577e-26 -9.20954656384775e-20 3.741971566920585e-26 -3.090314773426649e-20 
    -2.256575991838423e-26 -9.390035036883829e-19 -0.9999999999999998 -9.338119874842786e-14 6.284289215898003e-26 -9.527193033572256e-19 6.429024483240657e-26 -1.453365653335244e-19 
    9.718481557432577e-26 -9.20954656384775e-20 6.284289215898003e-26 -9.527193033572256e-19 -0.9999999999999998 -9.471346637797805e-14 7.79351677506273e-26 -7.837508903803817e-19 
    3.741971566920585e-26 -3.090314773426649e-20 6.429024483240657e-26 -1.453365653335244e-19 7.79351677506273e-26 -7.837508903803817e-19 -0.9999999999999998 -7.028855983622462e-14 
1922934.679992226 -0.9999999999999998 -8.405532534157656e-14 7.340207741539657e-26 -9.036844555009991e-19 7.321865181167297e-26 -8.86314917775253e-20 4.484958857290913e-26 -2.974077995617969e-20 
    7.340207741539657e-26 -9.036844555009991e-19 -0.9999999999999998 -8.982848506962736e-14 2.442096706022237e-25 -9.16884478132825e-19 6.960314514229652e-26 -1.398699857460155e-19 
    7.321865181167297e-26 -8.86314917775253e-20 2.442096706022237e-25 -9.16884478132825e-19 -0.9999999999999998 -9.116075269917755e-14 9.686101947846605e-26 -7.542714313371627e-19 
    4.484958857290913e-26 -2.974077995617969e-20 6.960314514229652e-26 -1.398699857460155e-19 9.686101947846605e-26 -7.542714313371627e-19 -0.9999999999999998 -6.762402457712424e-14 
1995262.314968878 -0.9999999999999999 -8.070857156353164e-14 1.619347645824154e-25 -8.683654073136059e-19 5.084009440701262e-26 -8.516751791656711e-20 5.158867591175861e-26 -2.857841217809131e-20 
    1.619347645824154e-25 -8.683654073136059e-19 -0.9999999999999999 -8.629775068397399e-14 4.112148791134085e-25 -8.810496529083912e-19 7.431173450408278e-26 -1.344034061585064e-19 
    5.084009440701262e-26 -8.516751791656711e-20 4.112148791134085e-25 -8.810496529083912e-19 -0.9999999999999999 -8.753923840924493e-14 1.140783618302463e-25 -7.247919722939431e-19 
    5.158867591175861e-26 -2.857841217809131e-20 7.431173450408278e-26 -1.344034061585064e-19 1.140783618302463e-25 -7.247919722939431e-19 -0.9999999999999999 -6.509083268800487e-14 
2076415.256168698 -0.9999999999999998 -7.783807640367568e-14 1.557271865005121e-25 -8.368875516593999e-19 5.084698408063736e-26 -8.208019481344991e-20 5.218451795188601e-26 -2.75424456811264e-20 
    1.557271865005121e-25 -8.368875516593999e-19 -0.9999999999999998 -8.316714692187643e-14 3.412007074987124e-25 -8.491118861524128e-19 6.662853920984311e-26 -1.295313168890834e-19 
    5.084698408063736e-26 -8.208019481344991e-20 3.412007074987124e-25 -8.491118861524128e-19 -0.9999999999999998 -8.449941455142662e-14 9.920231076400822e-26 -6.985185006470889e-19 
    5.218451795188601e-26 -2.75424456811264e-20 6.662853920984311e-26 -1.295313168890834e-19 9.920231076400822e-26 -6.985185006470889e-19 -0.9999999999999998 -6.273904326877355e-14 
2157568.197368518 -0.9999999999999998 -7.472945193472524e-14 1.495449983523276e-25 -8.054096960051941e-19 5.071471562139254e-26 -7.899287171033275e-20 5.25948557189942e-26 -2.650647918416162e-20 
    1.495449983523276e-25 -8.054096960051941e-19 -0.9999999999999998 -8.005852245292599e-14 2.753320883733879e-25 -8.171741193964292e-19 5.932067970405494e-26 -1.246592276196601e-19 
    5.071471562139254e-26 -7.899287171033275e-20 2.753320883733879e-25 -8.171741193964292e-19 -0.9999999999999998 -8.094670087262612e-14 8.513424617593381e-26 -6.722450290002345e-19 
    5.25948557189942e-26 -2.650647918416162e-20 5.932067970405494e-26 -1.246592276196601e-19 8.513424617593381e-26 -6.722450290002345e-19 -0.9999999999999998 -6.007450800967318e-14 
2238721.138568338 -0.9999999999999999 -7.193159009628249e-14 1.433882001321905e-25 -7.739318403509881e-19 5.044328898026314e-26 -7.590554860721563e-20 5.281968921142107e-26 -2.5470512687197e-20 
    1.433882001321905e-25 -7.739318403509881e-19 -0.9999999999999999 -7.691295125353346e-14 2.136090217596139e-25 -7.852363526404404e-19 5.23881559885336e-26 -1.197871383502364e-19 
    5.044328898026314e-26 -7.590554860721563e-20 2.136090217596139e-25 -7.852363526404404e-19 -0.9999999999999999 -7.801942834452588e-14 7.187416794829113e-26 -6.459715573533798e-19 
    5.281968921142107e-26 -2.5470512687197e-20 5.23881559885336e-26 -1.197871383502364e-19 7.187416794829113e-26 -6.459715573533798e-19 -0.9999999999999999 -5.801226568630435e-14 
2329776.236215418 -0.9999999999999998 -6.940038141652449e-14 1.094743665029141e-25 -7.45877012712189e-19 4.173418508628585e-26 -7.315399603003357e-20 5.197264425641439e-26 -2.454720212590719e-20 
    1.094743665029141e-25 -7.45877012712189e-19 -0.9999999999999998 -7.428536272487518e-14 1.946371528196834e-25 -7.567717751009843e-19 4.762498572922776e-26 -1.154448761751764e-19 
    4.173418508628585e-26 -7.315399603003357e-20 1.946371528196834e-25 -7.567717751009843e-19 -0.9999999999999998 -7.51735411445753e-14 9.117449404666447e-26 -6.225552783088659e-19 
    5.197264425641439e-26 -2.454720212590719e-20 4.762498572922776e-26 -1.154448761751764e-19 9.117449404666447e-26 -6.225552783088659e-19 -0.9999999999999998 -5.563361591117255e-14 
2420831.333862498 -0.9999999999999998 -6.673584615742411e-14 7.772073830465845e-26 -7.178221850733882e-19 3.35426796131084e-26 -7.040244345285057e-20 5.104528070277217e-26 -2.362389156461752e-20 
    7.772073830465845e-26 -7.178221850733882e-19 -0.9999999999999998 -7.117673825592474e-14 1.765099707418318e-25 -7.283071975615279e-19 4.307727260189306e-26 -1.111026140001162e-19 
    3.35426796131084e-26 -7.040244345285057e-20 1.765099707418318e-25 -7.283071975615279e-19 -0.9999999999999998 -7.206491667562487e-14 1.088269309360386e-25 -5.991389992643518e-19 
    5.104528070277217e-26 -2.362389156461752e-20 4.307727260189306e-26 -1.111026140001162e-19 1.088269309360386e-25 -5.991389992643518e-19 -0.9999999999999998 -5.38572590717723e-14 
2511886.431509578 -0.9999999999999999 -6.410909715822522e-14 4.81273155537189e-26 -6.897673574345862e-19 2.58687725300315e-26 -6.76508908756667e-20 5.003759855316065e-26 -2.270058100332796e-20 
    4.81273155537189e-26 -6.897673574345862e-19 -0.9999999999999999 -6.854873995514839e-14 1.592274754812277e-25 -6.998426200220711e-19 3.874501664991043e-26 -1.067603518250559e-19 
    2.58687725300315e-26 -6.76508908756667e-20 1.592274754812277e-25 -6.998426200220711e-19 -0.9999999999999999 -6.953488869660538e-14 1.248314790081608e-25 -5.75722720219837e-19 
    5.003759855316065e-26 -2.270058100332796e-20 3.874501664991043e-26 -1.067603518250559e-19 1.248314790081608e-25 -5.75722720219837e-19 -0.9999999999999999 -5.170348621055391e-14 
2588510.556448297 -0.9999999999999998 -6.229495405892349e-14 1.270348766032058e-26 -6.710144740508815e-19 2.970755293587988e-26 -6.581164991064982e-20 5.004336313879788e-26 -2.20834171284167e-20 
    1.270348766032058e-26 -6.710144740508815e-19 -0.9999999999999998 -6.673584615742411e-14 1.187821411590039e-25 -6.80815794071969e-19 4.612516777937217e-26 -1.038578187135471e-19 
    2.970755293587988e-26 -6.581164991064982e-20 1.187821411590039e-25 -6.80815794071969e-19 -0.9999999999999998 -6.762402457712424e-14 1.122608895512942e-25 -5.600703964064436e-19 
    5.004336313879788e-26 -2.20834171284167e-20 4.612516777937217e-26 -1.038578187135471e-19 1.122608895512942e-25 -5.600703964064436e-19 -0.9999999999999998 -5.03045453929718e-14 
2665134.681387015 -0.9999999999999999 -6.051859721952324e-14 -2.081349118770729e-26 -6.522615906671751e-19 3.329245788369328e-26 -6.397240894563273e-20 4.997276865682748e-26 -2.146625325350553e-20 
    -2.081349118770729e-26 -6.522615906671751e-19 -0.9999999999999999 -6.495948931802386e-14 8.03555023747786e-26 -6.617889681218648e-19 5.303393235946314e-26 -1.009552856020378e-19 
    3.329245788369328e-26 -6.397240894563273e-20 8.03555023747786e-26 -6.617889681218648e-19 -0.9999999999999999 -6.584766773772399e-14 1.002032273629365e-25 -5.4441807259305e-19 
    4.997276865682748e-26 -2.146625325350553e-20 5.303393235946314e-26 -1.009552856020378e-19 1.002032273629365e-25 -5.4441807259305e-19 -0.9999999999999999 -4.897227776342162e-14 
2741758.806325733 -0.9999999999999998 -5.874224038012299e-14 -5.242362068260612e-26 -6.335087072834671e-19 3.66234873626663e-26 -6.213316798061549e-20 4.982581510057244e-26 -2.084908937859446e-20 
    -5.242362068260612e-26 -6.335087072834671e-19 -0.9999999999999998 -6.273904326877355e-14 4.394755924162382e-26 -6.427621421717583e-19 5.94713103752488e-26 -9.805275249052814e-20 
    3.66234873626663e-26 -6.213316798061549e-20 4.394755924162382e-26 -6.427621421717583e-19 -0.9999999999999998 -6.362722168847368e-14 8.865849238275954e-26 -5.287657487796562e-19 
    4.982581510057244e-26 -2.084908937859446e-20 5.94713103752488e-26 -9.805275249052814e-20 8.865849238275954e-26 -5.287657487796562e-19 -0.9999999999999998 -4.719592092402136e-14 
2818382.931264451 -0.9999999999999999 -5.713729298011684e-14 -8.212690096274512e-26 -6.147558238997576e-19 3.970064140147703e-26 -6.029392701559809e-20 4.960250247804088e-26 -2.023192550368348e-20 
    -8.212690096274512e-26 -6.147558238997576e-19 -0.9999999999999999 -6.109412879018495e-14 9.558311535493912e-27 -6.237353162216498e-19 6.543730187107988e-26 -9.51502193790181e-20 
    3.970064140147703e-26 -6.029392701559809e-20 9.558311535493912e-27 -6.237353162216498e-19 -0.9999999999999999 -6.197303480200858e-14 7.76266845619821e-26 -5.131134249662621e-19 
    4.960250247804088e-26 -2.023192550368348e-20 6.543730187107988e-26 -9.51502193790181e-20 7.76266845619821e-26 -5.131134249662621e-19 -0.9999999999999999 -4.608078058191917e-14 
2904356.613490433 -0.9999999999999999 -5.518952670132249e-14 -5.106850540783667e-26 -5.980422520959741e-19 3.507976759987176e-26 -5.865469131118713e-20 4.901577131810878e-26 -1.968186961558202e-20 
    -5.106850540783667e-26 -5.980422520959741e-19 -0.9999999999999999 -5.918632958997305e-14 -4.398149694126152e-27 -6.06777640522473e-19 7.087049053109731e-26 -9.256334075820853e-20 
    3.507976759987176e-26 -5.865469131118713e-20 -4.398149694126152e-27 -6.06777640522473e-19 -0.9999999999999999 -6.007450800967318e-14 5.903772114078811e-26 -4.991632643034211e-19 
    4.901577131810878e-26 -1.968186961558202e-20 7.087049053109731e-26 -9.256334075820853e-20 5.903772114078811e-26 -4.991632643034211e-19 -0.9999999999999999 -4.453138566492099e-14 
2990330.295716414 -0.9999999999999999 -5.385725907177231e-14 -2.162129523208074e-26 -5.813286802921894e-19 3.065684486779341e-26 -5.701545560677584e-20 4.838645747711999e-26 -1.913181372748063e-20 
    -2.162129523208074e-26 -5.813286802921894e-19 -0.9999999999999999 -5.785406196042286e-14 -1.758905040745243e-26 -5.898199648232958e-19 7.590055584071804e-26 -8.997646213739871e-20 
    3.065684486779341e-26 -5.701545560677584e-20 -1.758905040745243e-26 -5.898199648232958e-19 -0.9999999999999999 -5.874224038012299e-14 4.13698100709074e-26 -4.852131036405794e-19 
    4.838645747711999e-26 -1.913181372748063e-20 7.590055584071804e-26 -8.997646213739871e-20 4.13698100709074e-26 -4.852131036405794e-19 -0.9999999999999999 -4.364320724522087e-14 
3076303.977942395 -0.9999999999999999 -5.252499144222212e-14 6.214729428527036e-27 -5.64615108488403e-19 2.643187323024885e-26 -5.537621990236424e-20 4.771456094784393e-26 -1.858175783937931e-20 
    6.214729428527036e-27 -5.64615108488403e-19 -0.9999999999999999 -5.607770512102262e-14 -3.001439093580578e-26 -5.728622891241184e-19 8.052749777865238e-26 -8.73895835165887e-20 
