! Touchstone file version 1.1
! Written by SMATRIXIO.2.8.1
! Date : Wed Jun  4 14:54:50 2025
# Hz S RI R 50.000000	
! Port[1] in
! Port[2] in 2
! Port[3] in 3
! Port[4] in 4
! Port[5] in 5
1000000 -1 -1.406207938856952e-13 -1.445247616545304e-25 -2.110339843427611e-18 2.874013611473862e-25 -2.257253942619887e-19 1.242086448660435e-25 -8.357054345941798e-20 
    1.145535975503538e-25 -2.434983608339012e-20 
    -1.445247616545304e-25 -2.110339843427611e-18 -0.9999999999999999 -1.717891271099247e-13 5.570236505767931e-26 -1.877582083522323e-18 1.242041169006004e-25 -3.145691104610149e-19 
    -1.066952551420854e-25 -6.51839474104092e-20 
    2.874013611473862e-25 -2.257253942619887e-19 5.570236505767931e-26 -1.877582083522323e-18 -0.9999999999999999 -1.704078583468408e-13 8.793820202697813e-25 -1.826349329545131e-18 
    5.062429611585518e-26 -1.68128123480553e-19 
    1.242086448660435e-25 -8.357054345941798e-20 1.242041169006004e-25 -3.145691104610149e-19 8.793820202697813e-25 -1.826349329545131e-18 -0.9999999999999999 -1.660829882836311e-13 
    3.614644605949543e-25 -1.492497392602202e-18 
    1.145535975503538e-25 -2.434983608339012e-20 -1.066952551420854e-25 -6.51839474104092e-20 5.062429611585518e-26 -1.68128123480553e-19 3.614644605949543e-25 -1.492497392602202e-18 
    -1 -1.624450505009842e-13 
1061009.227150982 -1 -1.329051384250835e-13 -4.189300634839818e-25 -1.995590644261866e-18 2.541512630903761e-25 -2.134518049872097e-19 1.08504563684055e-25 -7.902633278418772e-20 
    1.395210852150492e-25 -2.302586199036292e-20 
    -4.189300634839818e-25 -1.995590644261866e-18 -0.9999999999999998 -1.622150262751876e-13 2.721994672171466e-25 -1.775489942997337e-18 1.175013585068028e-25 -2.97464515860654e-19 
    -3.557010214144608e-26 -6.163947263576776e-20 
    2.541512630903761e-25 -2.134518049872097e-19 2.721994672171466e-25 -1.775489942997337e-18 -0.9999999999999998 -1.608827586456374e-13 4.127328963790178e-25 -1.727042201376878e-18 
    2.007230493938845e-26 -1.589861483155273e-19 
    1.08504563684055e-25 -7.902633278418772e-20 1.175013585068028e-25 -2.97464515860654e-19 4.127328963790178e-25 -1.727042201376878e-18 -0.9999999999999998 -1.568859557569868e-13 
    -1.198160718040042e-25 -1.411344061985578e-18 
    1.395210852150492e-25 -2.302586199036292e-20 -3.557010214144608e-26 -6.163947263576776e-20 2.007230493938845e-26 -1.589861483155273e-19 -1.198160718040042e-25 -1.411344061985578e-18 
    -1 -1.537773312880364e-13 
1122018.454301963 -1 -1.253284145445819e-13 -6.608742536011275e-25 -1.880841445096089e-18 2.229278214469457e-25 -2.011782157124268e-19 9.382979350767916e-26 -7.448212210895503e-20 
    1.609010550793441e-25 -2.170188789731518e-20 
    -6.608742536011275e-25 -1.880841445096089e-18 -0.9999999999999999 -1.531072206944874e-13 4.634507303381599e-25 -1.673397802472328e-18 1.107927578765048e-25 -2.803599212602931e-19 
    2.804242068919332e-26 -5.809499786105278e-20 
    2.229278214469457e-25 -2.011782157124268e-19 4.634507303381599e-25 -1.673397802472328e-18 -0.9999999999999999 -1.518761636753399e-13 -5.749361550805187e-27 -1.627735073208513e-18 
    -7.282672547922365e-27 -1.498441731504964e-19 
    9.382979350767916e-26 -7.448212210895503e-20 1.107927578765048e-25 -2.803599212602931e-19 -5.749361550805187e-27 -1.627735073208513e-18 -0.9999999999999999 -1.480216191114427e-13 
    -5.480089063908989e-25 -1.330190731368808e-18 
    1.609010550793441e-25 -2.170188789731518e-20 2.804242068919332e-26 -5.809499786105278e-20 -7.282672547922365e-27 -1.498441731504964e-19 -5.480089063908989e-25 -1.330190731368808e-18 
    -1 -1.447793036000353e-13 
1190471.933048065 -1 -1.182501945000314e-13 -2.989301971535451e-25 -1.778571559363419e-18 1.472876537380306e-25 -1.902389532296879e-19 5.525836683356435e-26 -7.04321992397438e-20 
    9.67096430962252e-26 -2.052179376447866e-20 
    -2.989301971535451e-25 -1.778571559363419e-18 -0.9999999999999998 -1.444514578811851e-13 1.454068585432619e-25 -1.582407289023684e-18 1.045849112790707e-25 -2.651154892152568e-19 
    8.545739499241501e-26 -5.493615325812138e-20 
    1.472876537380306e-25 -1.902389532296879e-19 1.454068585432619e-25 -1.582407289023684e-18 -0.9999999999999998 -1.435632794614849e-13 1.731786834099871e-25 -1.539227819950853e-18 
    -3.165178705059274e-26 -1.41696464490402e-19 
    5.525836683356435e-26 -7.04321992397438e-20 1.045849112790707e-25 -2.651154892152568e-19 1.731786834099871e-25 -1.539227819950853e-18 -0.9999999999999998 -1.400105657826844e-13 
    -5.187872407279395e-25 -1.2578622720434e-18 
    9.67096430962252e-26 -2.052179376447866e-20 8.545739499241501e-26 -5.493615325812138e-20 -3.165178705059274e-26 -1.41696464490402e-19 -5.187872407279395e-25 -1.2578622720434e-18 
    -1 -1.36901941313734e-13 
1258925.411794167 -1 -1.116990669702892e-13 2.552204597714668e-26 -1.676301673630683e-18 7.895243373215882e-26 -1.792996907469222e-19 2.053599883535707e-26 -6.638227637051366e-20 
    3.889455471351493e-26 -1.93416996314623e-20 
    2.552204597714668e-26 -1.676301673630683e-18 -0.9999999999999999 -1.364569540748276e-13 -1.389591921142825e-25 -1.491416775574984e-18 9.839817288437743e-26 -2.498710571702205e-19 
    1.360942645302066e-25 -5.177730865513733e-20 
    7.895243373215882e-26 -1.792996907469222e-19 -1.389591921142825e-25 -1.491416775574984e-18 -0.9999999999999999 -1.353597732683303e-13 3.315655703132071e-25 -1.450720566693175e-18 
    -5.317285769593778e-26 -1.33548755830304e-19 
    2.053599883535707e-26 -6.638227637051366e-20 9.839817288437743e-26 -2.498710571702205e-19 3.315655703132071e-25 -1.450720566693175e-18 -0.9999999999999999 -1.31924406894452e-13 
    -4.894993281172845e-25 -1.185533812717992e-18 
    3.889455471351493e-26 -1.93416996314623e-20 1.360942645302066e-25 -5.177730865513733e-20 -5.317285769593778e-26 -1.33548755830304e-19 -4.894993281172845e-25 -1.185533812717992e-18 
    -1 -1.290346901334206e-13 
1335731.47820846 -1 -1.058156966242296e-13 1.537031547358566e-25 -1.585154007191645e-18 8.764280886982775e-26 -1.695504084767472e-19 4.929766962591144e-26 -6.277280110163738e-20 
    3.960611339223488e-26 -1.828998571273932e-20 
    1.537031547358566e-25 -1.585154007191645e-18 -0.9999999999999998 -1.293524247462829e-13 4.496794635398245e-28 -1.410322016811902e-18 8.793279509518204e-26 -2.362844131705512e-19 
    4.150731192087686e-26 -4.896190741735896e-20 
    8.764280886982775e-26 -1.695504084767472e-19 4.496794635398245e-28 -1.410322016811902e-18 -0.9999999999999998 -1.280201571167327e-13 6.740190249884351e-26 -1.371838183919953e-18 
    3.255104751667747e-26 -1.262871312346136e-19 
    4.929766962591144e-26 -6.277280110163738e-20 8.793279509518204e-26 -2.362844131705512e-19 6.740190249884351e-26 -1.371838183919953e-18 -0.9999999999999998 -1.249115326477823e-13 
    -4.117325317058217e-25 -1.121070699863348e-18 
    3.960611339223488e-26 -1.828998571273932e-20 4.150731192087686e-26 -4.896190741735896e-20 3.255104751667747e-26 -1.262871312346136e-19 -4.117325317058217e-25 -1.121070699863348e-18 
    -1 -1.22246997388682e-13 
1412537.544622754 -1 -9.955189823431965e-14 2.669836318686708e-25 -1.494006340752596e-18 9.484007795738529e-26 -1.59801126206572e-19 7.462329896333063e-26 -5.916332583274954e-20 
    3.999261594961027e-26 -1.723827179401661e-20 
    2.669836318686708e-25 -1.494006340752596e-18 -0.9999999999999999 -1.216173883348242e-13 1.2469521695228e-25 -1.329227258048808e-18 7.805565655179154e-26 -2.226977691708816e-19 
    -4.305283255299362e-26 -4.614650617941684e-20 
    9.484007795738529e-26 -1.59801126206572e-19 1.2469521695228e-25 -1.329227258048808e-18 -0.9999999999999999 -1.206395249927589e-13 -1.684556447016698e-25 -1.292955801146684e-18 
    1.087490458191539e-25 -1.190255066388713e-19 
    7.462329896333063e-26 -5.916332583274954e-20 7.805565655179154e-26 -2.226977691708816e-19 -1.684556447016698e-25 -1.292955801146684e-18 -0.9999999999999999 -1.175777514040578e-13 
    -3.398481710489795e-25 -1.056607587008699e-18 
    3.999261594961027e-26 -1.723827179401661e-20 -4.305283255299362e-26 -4.614650617941684e-20 1.087490458191539e-25 -1.190255066388713e-19 -3.398481710489795e-25 -1.056607587008699e-18 
    -1 -1.150022885633263e-13 
1498715.368541934 -1 -9.426937716812801e-14 5.335931473207365e-26 -1.412770098278077e-18 6.008199838647751e-26 -1.511120384245077e-19 6.936885643148137e-26 -5.594632090644413e-20 
    7.147242454673262e-26 -1.630095495881764e-20 
    5.335931473207365e-26 -1.412770098278077e-18 -0.9999999999999998 -1.151415700310809e-13 1.78573084844182e-25 -1.25695061789989e-18 7.523004925278782e-26 -2.105886773764183e-19 
    3.053173657513063e-26 -4.363730306870401e-20 
    6.008199838647751e-26 -1.511120384245077e-19 1.78573084844182e-25 -1.25695061789989e-18 -0.9999999999999998 -1.138093024015307e-13 -1.082904122591519e-25 -1.222651973341027e-18 
    9.11855675155644e-26 -1.125534958043919e-19 
    6.936885643148137e-26 -5.594632090644413e-20 7.523004925278782e-26 -2.105886773764183e-19 -1.082904122591519e-25 -1.222651973341027e-18 -0.9999999999999998 -1.111447671424304e-13 
    -6.631025487683947e-26 -9.991553018054351e-19 
    7.147242454673262e-26 -1.630095495881764e-20 3.053173657513063e-26 -4.363730306870401e-20 9.11855675155644e-26 -1.125534958043919e-19 -6.631025487683947e-26 -9.991553018054351e-19 
    -1 -1.089243210931801e-13 
1584893.192461113 -1 -8.872572265053934e-14 -1.373671274285614e-25 -1.331533855803528e-18 2.872811486487171e-26 -1.424229506424361e-19 6.425205003729488e-26 -5.272931598013852e-20 
    9.908193087062674e-26 -1.536363812356617e-20 
    -1.373671274285614e-25 -1.331533855803528e-18 -0.9999999999999999 -1.083916114424764e-13 2.254750729723964e-25 -1.184673977750971e-18 7.224129574548558e-26 -1.984795855819551e-19 
    9.592310360296846e-26 -4.112809995788061e-20 
    2.872811486487171e-26 -1.424229506424361e-19 2.254750729723964e-25 -1.184673977750971e-18 -0.9999999999999999 -1.075200897440903e-13 -5.399092865966947e-26 -1.152348145535366e-18 
    7.496190620369767e-26 -1.060814849699102e-19 
    6.425205003729488e-26 -5.272931598013852e-20 7.224129574548558e-26 -1.984795855819551e-19 -5.399092865966947e-26 -1.152348145535366e-18 -0.9999999999999999 -1.04791281240068e-13 
    1.778954494981497e-25 -9.417030166021043e-19 
    9.908193087062674e-26 -1.536363812356617e-20 9.592310360296846e-26 -4.112809995788061e-20 7.496190620369767e-26 -1.060814849699102e-19 1.778954494981497e-25 -9.417030166021043e-19 
    -1 -1.024958976555975e-13 
1681586.301250017 -1 -8.405532534157657e-14 1.165395404064101e-25 -1.259132326600574e-18 -2.952230060884698e-26 -1.346787498044983e-19 7.500793907161749e-26 -4.986218016155724e-20 
    7.057961180355032e-26 -1.452825923632534e-20 
    1.165395404064101e-25 -1.259132326600574e-18 -0.9999999999999999 -1.022629829454291e-13 1.066591672547769e-25 -1.120258105864386e-18 9.284719146786724e-26 -1.876873319590083e-19 
    5.158842292635925e-26 -3.889177746420253e-20 
    -2.952230060884698e-26 -1.346787498044983e-19 1.066591672547769e-25 -1.120258105864386e-18 -0.9999999999999999 -1.018188937355791e-13 -1.537131927730862e-26 -1.089689646489578e-18 
    5.52114342619867e-26 -1.003133806685169e-19 
    7.500793907161749e-26 -4.986218016155724e-20 9.284719146786724e-26 -1.876873319590083e-19 -1.537131927730862e-26 -1.089689646489578e-18 -0.9999999999999999 -9.915435847647869e-14 
    2.22508494928045e-25 -8.904982383194595e-19 
    7.057961180355032e-26 -1.452825923632534e-20 5.158842292635925e-26 -3.889177746420253e-20 5.52114342619867e-26 -1.003133806685169e-19 2.22508494928045e-25 -8.904982383194595e-19 
    -1 -9.693391242722839e-14 
1778279.410038922 -1 -7.907688352825475e-14 3.42105351812032e-25 -1.186730797397575e-18 -8.125341231805493e-26 -1.269345489665381e-19 8.412509313012837e-26 -4.699504434297437e-20 
    4.473551444328535e-26 -1.369288034903482e-20 
    3.42105351812032e-25 -1.186730797397575e-18 -0.9999999999999999 -9.660412538402513e-14 9.738021802390569e-29 -1.055842233977789e-18 1.106316177975267e-25 -1.768950783360596e-19 
    1.175250730277752e-26 -3.665545497047913e-20 
    -8.125341231805493e-26 -1.269345489665381e-19 9.738021802390569e-29 -1.055842233977789e-18 -0.9999999999999999 -9.582738089292548e-14 1.91445565290066e-26 -1.027031147443789e-18 
    3.726355314884291e-26 -9.45452763671202e-20 
    8.412509313012837e-26 -4.699504434297437e-20 1.106316177975267e-25 -1.768950783360596e-19 1.91445565290066e-26 -1.027031147443789e-18 -0.9999999999999999 -9.339532771194045e-14 
    2.608785069702466e-25 -8.39293460036813e-19 
    4.473551444328535e-26 -1.369288034903482e-20 1.175250730277752e-26 -3.665545497047913e-20 3.726355314884291e-26 -9.45452763671202e-20 2.608785069702466e-25 -8.39293460036813e-19 
    -1 -9.134956495933363e-14 
1850607.045015574 -1 -7.606171956427544e-14 2.384198028298241e-25 -1.143712062927958e-18 -3.211567612538113e-26 -1.223332284015035e-19 9.463084450313455e-26 -4.529149078357955e-20 
    3.953433418395032e-26 -1.319650297835418e-20 
    2.384198028298241e-25 -1.143712062927958e-18 -0.9999999999999998 -9.29371095385778e-14 5.541752730405175e-26 -1.017568212178236e-18 1.006674377533592e-25 -1.704826844878207e-19 
    2.154731290573194e-26 -3.532670633236227e-20 
    -3.211567612538113e-26 -1.223332284015035e-19 5.541752730405175e-26 -1.017568212178236e-18 -0.9999999999999998 -9.249302032872773e-14 -8.113381261661858e-27 -9.898016337210737e-19 
    3.991886024238485e-26 -9.11180335097443e-20 
    9.463084450313455e-26 -4.529149078357955e-20 1.006674377533592e-25 -1.704826844878207e-19 -8.113381261661858e-27 -9.898016337210737e-19 -0.9999999999999998 -8.982848506962736e-14 
    2.181606805298198e-25 -8.088693725029768e-19 
    3.953433418395032e-26 -1.319650297835418e-20 2.154731290573194e-26 -3.532670633236227e-20 3.991886024238485e-26 -9.11180335097443e-20 2.181606805298198e-25 -8.088693725029768e-19 
    -1 -8.805212823022713e-14 
1922934.679992226 -1 -7.339718430517507e-14 1.416012536574926e-25 -1.100693328458333e-18 1.354719476032529e-26 -1.177319078364506e-19 1.041168853791979e-25 -4.358793722418282e-20 
    3.460243355347268e-26 -1.270012560767176e-20 
    1.416012536574926e-25 -1.100693328458333e-18 -0.9999999999999998 -8.982848506962736e-14 1.06575870648793e-25 -9.792941903786809e-19 9.115114154177392e-26 -1.640702906395813e-19 
    3.057324329528182e-26 -3.399795769424295e-20 
    1.354719476032529e-26 -1.177319078364506e-19 1.06575870648793e-25 -9.792941903786809e-19 -0.9999999999999998 -8.894030664992723e-14 -3.337301327656672e-26 -9.52572119998358e-19 
    4.227280255014518e-26 -8.769079065236834e-20 
    1.041168853791979e-25 -4.358793722418282e-20 9.115114154177392e-26 -1.640702906395813e-19 -3.337301327656672e-26 -9.52572119998358e-19 -0.9999999999999998 -8.671986060067692e-14 
    1.779449583217505e-25 -7.784452849691388e-19 
    3.460243355347268e-26 -1.270012560767176e-20 3.057324329528182e-26 -3.399795769424295e-20 4.227280255014518e-26 -8.769079065236834e-20 1.779449583217505e-25 -7.784452849691388e-19 
    -1 -8.449941455142663e-14 
1995262.314968878 -1 -7.047734666893191e-14 5.164970431711595e-26 -1.0576745939887e-18 5.573520028036266e-26 -1.131305872713813e-19 1.125832157407912e-25 -4.188438366478461e-20 
    2.99398125496418e-26 -1.220374823698767e-20 
    5.164970431711595e-26 -1.0576745939887e-18 -0.9999999999999999 -8.609851737205065e-14 1.535724100944177e-25 -9.410201685791226e-19 8.208272914914465e-26 -1.576578967913415e-19 
    3.883029848627622e-26 -3.266920905612145e-20 
    5.573520028036266e-26 -1.131305872713813e-19 1.535724100944177e-25 -9.410201685791226e-19 -0.9999999999999999 -8.540624310520432e-14 -5.663433979663242e-26 -9.153426062756415e-19 
    4.432538007637685e-26 -8.426354779499237e-20 
    1.125832157407912e-25 -4.188438366478461e-20 8.208272914914465e-26 -1.576578967913415e-19 -5.663433979663242e-26 -9.153426062756415e-19 -0.9999999999999999 -8.323867343848152e-14 
    1.402313407064831e-25 -7.480211974352987e-19 
    2.99398125496418e-26 -1.220374823698767e-20 3.883029848627622e-26 -3.266920905612145e-20 4.432538007637685e-26 -8.426354779499237e-20 1.402313407064831e-25 -7.480211974352987e-19 
    -1 -8.141538544072621e-14 
2076415.256168698 -1 -6.762402457712425e-14 8.745457022632371e-27 -1.01933435523446e-18 8.817631324333233e-26 -1.090296224830122e-19 1.003045432699508e-25 -4.03660825362987e-20 
    3.219661597349901e-26 -1.176136561098895e-20 
    8.745457022632371e-27 -1.01933435523446e-18 -0.9999999999999998 -8.316714692187643e-14 1.371727109827231e-25 -9.069084981454478e-19 8.445078691220072e-26 -1.51942837304336e-19 
    4.747478973640691e-26 -3.148495556277483e-20 
    8.817631324333233e-26 -1.090296224830122e-19 1.371727109827231e-25 -9.069084981454478e-19 -0.9999999999999998 -8.227896850217631e-14 7.679449894879772e-28 -8.821616530814047e-19 
    3.938389522723392e-26 -8.120901955947753e-20 
    1.003045432699508e-25 -4.03660825362987e-20 8.445078691220072e-26 -1.51942837304336e-19 7.679449894879772e-28 -8.821616530814047e-19 -0.9999999999999998 -8.005852245292599e-14 
    1.081277783415892e-25 -7.209056282872885e-19 
    3.219661597349901e-26 -1.176136561098895e-20 4.747478973640691e-26 -3.148495556277483e-20 3.938389522723392e-26 -8.120901955947753e-20 1.081277783415892e-25 -7.209056282872885e-19 
    -1 -7.828216561352576e-14 
2157568.197368518 -1 -6.540357852787394e-14 -3.107211832785772e-26 -9.809941164802188e-19 1.180250038412216e-25 -1.049286576946342e-19 8.864254457107781e-26 -3.88477814078096e-20 
    3.42020042033922e-26 -1.131898298498997e-20 
    -3.107211832785772e-26 -9.809941164802188e-19 -0.9999999999999998 -8.005852245292599e-14 1.215879191179837e-25 -8.727968277117726e-19 8.641686948117029e-26 -1.462277778173305e-19 
    5.536309668413446e-26 -3.030070206942613e-20 
    1.180250038412216e-25 -1.049286576946342e-19 1.215879191179837e-25 -8.727968277117726e-19 -0.9999999999999998 -7.917034403322587e-14 5.400649734152594e-26 -8.489806998871645e-19 
    3.469326784434579e-26 -7.815449132396245e-20 
    8.864254457107781e-26 -3.88477814078096e-20 8.641686948117029e-26 -1.462277778173305e-19 5.400649734152594e-26 -8.489806998871645e-19 -0.9999999999999998 -7.739398719382562e-14 
    7.805684946314219e-26 -6.93790059139277e-19 
    3.42020042033922e-26 -1.131898298498997e-20 5.536309668413446e-26 -3.030070206942613e-20 3.469326784434579e-26 -7.815449132396245e-20 7.805684946314219e-26 -6.93790059139277e-19 
    -1 -7.561763035442538e-14 
2238721.138568338 -1 -6.281300131901243e-14 -6.780302142998859e-26 -9.426538777259761e-19 1.452812720377503e-25 -1.008276929062487e-19 7.759721963909164e-26 -3.732948027931748e-20 
    3.59559772349182e-26 -1.087660035899083e-20 
    -6.780302142998859e-26 -9.426538777259761e-19 -0.9999999999999999 -7.673538437690028e-14 1.068180345295771e-25 -8.386851572780972e-19 8.798097678497534e-26 -1.405127183303251e-19 
    6.249521931832129e-26 -2.911644857607574e-20 
    1.452812720377503e-25 -1.008276929062487e-19 1.068180345295771e-25 -8.386851572780972e-19 -0.9999999999999999 -7.611839429322234e-14 1.030813168218321e-25 -8.157997466929211e-19 
    3.025349796594152e-26 -7.509996308844711e-20 
    7.759721963909164e-26 -3.732948027931748e-20 8.798097678497534e-26 -1.405127183303251e-19 1.030813168218321e-25 -8.157997466929211e-19 -0.9999999999999999 -7.41865457895319e-14 
    5.001855404720466e-26 -6.666744899912642e-19 
    3.59559772349182e-26 -1.087660035899083e-20 6.249521931832129e-26 -2.911644857607574e-20 3.025349796594152e-26 -7.509996308844711e-20 5.001855404720466e-26 -6.666744899912642e-19 
    -1 -7.256153862977731e-14 
2329776.236215418 -1 -6.051859721952325e-14 -5.241788494257984e-26 -9.084829009594997e-19 1.248315142118565e-25 -9.717271985514738e-20 7.629817704395523e-26 -3.597628835819608e-20 
    3.670068023993027e-26 -1.0482330030132e-20 
