! Touchstone file version 1.1
! Written by SMATRIXIO.2.8.1
! Date : Wed Jun  4 14:54:57 2025
# Hz S RI R 50.000000	
! Port[1] in
! Port[2] in 2
! Port[3] in 3
! Port[4] in 4
! Port[5] in 5
! Port[6] in 6
1000000 -0.9999999999999999 -1.570502974971462e-13 5.023586763625325e-25 -1.633861034331239e-18 2.756290976076919e-25 -1.692475111051679e-19 9.010344275489226e-26 -5.21257695974388e-20 
    4.173670416154606e-26 -2.365086369210955e-20 1.814060420966093e-26 -1.084372395896628e-20 
    5.023586763625325e-25 -1.633861034331239e-18 -0.9999999999999999 -1.785281126495555e-13 2.867441365023739e-25 -1.484996950281135e-18 3.356522605124722e-26 -2.063246389050085e-19 
    2.88757737418122e-26 -6.652407950069177e-20 8.879767410381884e-26 -2.515403399801791e-20 
    2.756290976076919e-25 -1.692475111051679e-19 2.867441365023739e-25 -1.484996950281135e-18 -0.9999999999999999 -1.693857964294768e-13 -1.535145411347234e-25 -1.185494359277309e-18 
    3.051012829445773e-27 -1.693870028684656e-19 1.570225552232807e-26 -4.544548342610173e-20 
    9.010344275489226e-26 -5.21257695974388e-20 3.356522605124722e-26 -2.063246389050085e-19 -1.535145411347234e-25 -1.185494359277309e-18 -0.9999999999999999 -1.367699880658509e-13 
    2.407170510901091e-25 -1.247282446406295e-18 -5.281800736450953e-26 -1.514214789298152e-19 
    4.173670416154606e-26 -2.365086369210955e-20 2.88757737418122e-26 -6.652407950069177e-20 3.051012829445773e-27 -1.693870028684656e-19 2.407170510901091e-25 -1.247282446406295e-18 
    -1 -1.69261384417087e-13 8.785869954639831e-25 -1.159714543979657e-18 
    1.814060420966093e-26 -1.084372395896628e-20 8.879767410381884e-26 -2.515403399801791e-20 1.570225552232807e-26 -4.544548342610173e-20 -5.281800736450953e-26 -1.514214789298152e-19 
    8.785869954639831e-25 -1.159714543979657e-18 -1 -1.734270295750751e-13 
1061009.227150982 -0.9999999999999998 -1.484482607698356e-13 5.672448695183472e-25 -1.545020801969924e-18 1.667969377341194e-25 -1.600444612838138e-19 5.952555034047173e-26 -4.929141397649087e-20 
    5.120997163642515e-26 -2.236483351597669e-20 8.203189061998658e-27 -1.025411132658482e-20 
    5.672448695183472e-25 -1.545020801969924e-18 -0.9999999999999998 -1.688763644229385e-13 4.50256543909876e-25 -1.404250764602064e-18 -1.533523010071796e-26 -1.951058661169074e-19 
    3.67942216552652e-26 -6.290682860704385e-20 6.42216214094764e-26 -2.378624493435657e-20 
    1.667969377341194e-25 -1.600444612838138e-19 4.50256543909876e-25 -1.404250764602064e-18 -0.9999999999999998 -1.599945802259373e-13 1.559053225228281e-25 -1.121033430319353e-18 
    6.876280743702854e-26 -1.601767150003219e-19 5.186127923197944e-26 -4.297440562785197e-20 
    5.952555034047173e-26 -4.929141397649087e-20 -1.533523010071796e-26 -1.951058661169074e-19 1.559053225228281e-25 -1.121033430319353e-18 -0.9999999999999998 -1.293524247462829e-13 
    8.680671521272902e-26 -1.179462017689585e-18 -1.889545567696246e-26 -1.431880359742609e-19 
    5.120997163642515e-26 -2.236483351597669e-20 3.67942216552652e-26 -6.290682860704385e-20 6.876280743702854e-26 -1.601767150003219e-19 8.680671521272902e-26 -1.179462017689585e-18 
    -1 -1.599945802259373e-13 6.774351267472135e-26 -1.096655895756426e-18 
    8.203189061998658e-27 -1.025411132658482e-20 6.42216214094764e-26 -2.378624493435657e-20 5.186127923197944e-26 -4.297440562785197e-20 -1.889545567696246e-26 -1.431880359742609e-19 
    6.774351267472135e-26 -1.096655895756426e-18 -1 -1.639913831145878e-13 
1122018.454301963 -0.9999999999999999 -1.399712249620731e-13 6.215276895937784e-25 -1.456180569608609e-18 6.875747103114674e-26 -1.508414114623935e-19 3.190078758257642e-26 -4.645705835552602e-20 
    5.933277071822866e-26 -2.107880333984076e-20 -7.048537994829604e-28 -9.664498694194721e-21 
    6.215276895937784e-25 -1.456180569608609e-18 -0.9999999999999999 -1.591133478868982e-13 5.931715383448988e-25 -1.323504578922978e-18 -5.882192943129685e-26 -1.838870933287954e-19 
    4.362145137615831e-26 -5.928957771339517e-20 4.191666900712267e-26 -2.241845587067271e-20 
    6.875747103114674e-26 -1.508414114623935e-19 5.931715383448988e-25 -1.323504578922978e-18 -0.9999999999999999 -1.509652501227398e-13 4.30701033208096e-25 -1.056572501361321e-18 
    1.268985633164747e-25 -1.509664271321542e-19 8.376374263464002e-26 -4.050332782957549e-20 
    3.190078758257642e-26 -4.645705835552602e-20 -5.882192943129685e-26 -1.838870933287954e-19 4.30701033208096e-25 -1.056572501361321e-18 -0.9999999999999999 -1.218963801714814e-13 
    -5.090882821973179e-26 -1.111641588972857e-18 1.145621939992371e-26 -1.349545930186994e-19 
    5.933277071822866e-26 -2.107880333984076e-20 4.362145137615831e-26 -5.928957771339517e-20 1.268985633164747e-25 -1.509664271321542e-19 -5.090882821973179e-26 -1.111641588972857e-18 
    -1 -1.508543676324527e-13 -6.553455114983206e-25 -1.033597247532659e-18 
    -7.048537994829604e-28 -9.664498694194721e-21 4.191666900712267e-26 -2.241845587067271e-20 8.376374263464002e-26 -4.050332782957549e-20 1.145621939992371e-26 -1.349545930186994e-19 
    -6.553455114983206e-25 -1.033597247532659e-18 -1 -1.545670027754193e-13 
1190471.933048065 -0.9999999999999998 -1.324610492152334e-13 4.671714923655599e-25 -1.377001380762356e-18 1.425269198387146e-26 -1.426396675994175e-19 5.435065839016986e-26 -4.393098085504735e-20 
    6.072014694643762e-26 -1.993263847537838e-20 9.182734837571365e-27 -9.138984595605381e-21 
    4.671714923655599e-25 -1.377001380762356e-18 -0.9999999999999998 -1.502246176092359e-13 3.06711624479461e-25 -1.251539544771108e-18 1.405581342718828e-26 -1.738882430254049e-19 
    5.305579317546306e-26 -5.606571019595343e-20 4.940468108005938e-26 -2.119950006349975e-20 
    1.425269198387146e-26 -1.426396675994175e-19 3.06711624479461e-25 -1.251539544771108e-18 -0.9999999999999998 -1.426751010417848e-13 2.264355502567118e-25 -9.991216601357112e-19 
    9.314659686508593e-26 -1.427576349640177e-19 6.549602000828586e-26 -3.830099772243421e-20 
    5.435065839016986e-26 -4.393098085504735e-20 1.405581342718828e-26 -1.738882430254049e-19 2.264355502567118e-25 -9.991216601357112e-19 -0.9999999999999998 -1.151415700310809e-13 
    3.44753608629553e-26 -1.051196620920418e-18 2.915935250401335e-26 -1.276164547611541e-19 
    6.072014694643762e-26 -1.993263847537838e-20 5.305579317546306e-26 -5.606571019595343e-20 9.314659686508593e-26 -1.427576349640177e-19 3.44753608629553e-26 -1.051196620920418e-18 
    -1 -1.422310118319348e-13 -3.924490335289488e-25 -9.773958474484628e-19 
    9.182734837571365e-27 -9.138984595605381e-21 4.940468108005938e-26 -2.119950006349975e-20 6.549602000828586e-26 -3.830099772243421e-20 2.915935250401335e-26 -1.276164547611541e-19 
    -3.924490335289488e-25 -9.773958474484628e-19 -1 -1.462278147205853e-13 
1258925.411794167 -0.9999999999999999 -1.247494855824911e-13 3.266800805867027e-25 -1.297822191916089e-18 -3.44139993662272e-26 -1.344379237364229e-19 7.401926565080799e-26 -4.140490335455882e-20 
    6.15769404116944e-26 -1.878647361091655e-20 1.79376099143553e-26 -8.613470497006565e-21 
    3.266800805867027e-25 -1.297822191916089e-18 -0.9999999999999999 -1.418099205680826e-13 4.948606564967101e-26 -1.179574510619179e-18 7.892021484198509e-26 -1.638893927219871e-19 
    6.113237798955514e-26 -5.284184267851053e-20 5.576948608551247e-26 -1.998054425632491e-20 
    -3.44139993662272e-26 -1.344379237364229e-19 4.948606564967101e-26 -1.179574510619179e-18 -0.9999999999999999 -1.345479206960828e-13 4.296787112214721e-26 -9.416708189100638e-19 
    6.248268056581232e-26 -1.345488427958742e-19 4.880532573033576e-26 -3.609866761528532e-20 
    7.401926565080799e-26 -4.140490335455882e-20 7.892021484198509e-26 -1.638893927219871e-19 4.296787112214721e-26 -9.416708189100638e-19 -0.9999999999999999 -1.0864026317955e-13 
    1.103585215918351e-25 -9.907516528679728e-19 4.475493310512357e-26 -1.202783165036067e-19 
    6.15769404116944e-26 -1.878647361091655e-20 6.113237798955514e-26 -5.284184267851053e-20 6.248268056581232e-26 -1.345488427958742e-19 1.103585215918351e-25 -9.907516528679728e-19 
    -1 -1.344490966540271e-13 -1.556882557533606e-25 -9.211944473642038e-19 
    1.79376099143553e-26 -8.613470497006565e-21 5.576948608551247e-26 -1.998054425632491e-20 4.880532573033576e-26 -3.609866761528532e-20 4.475493310512357e-26 -1.202783165036067e-19 
    -1.556882557533606e-25 -9.211944473642038e-19 -1 -1.377579863133879e-13 
1335731.47820846 -0.9999999999999998 -1.182501945000314e-13 2.727233844324613e-25 -1.227253773032953e-18 -7.864503729275945e-26 -1.271278722640714e-19 4.437043610368889e-26 -3.915352765825542e-20 
    5.159492108511798e-26 -1.776496835208758e-20 2.632720564217183e-26 -8.145125957796961e-21 
    2.727233844324613e-25 -1.227253773032953e-18 -0.9999999999999998 -1.342374060546336e-13 3.277204309349184e-26 -1.115435472673244e-18 7.635779705128549e-26 -1.549779802587013e-19 
    4.730266133398407e-26 -4.996857137005242e-20 4.256465857012966e-26 -1.889410981331875e-20 
    -7.864503729275945e-26 -1.271278722640714e-19 3.277204309349184e-26 -1.115435472673244e-18 -0.9999999999999998 -1.275760679068827e-13 5.481333898729857e-26 -8.904679083999446e-19 
    6.853794196548546e-26 -1.272327838697627e-19 3.711522244933969e-26 -3.413580864513888e-20 
    4.437043610368889e-26 -3.915352765825542e-20 7.635779705128549e-26 -1.549779802587013e-19 5.481333898729857e-26 -8.904679083999446e-19 -0.9999999999999998 -1.027070721552792e-13 
    1.077577464518492e-26 -9.36879952056614e-19 3.694649257310538e-26 -1.137382524526155e-19 
    5.159492108511798e-26 -1.776496835208758e-20 4.730266133398407e-26 -4.996857137005242e-20 6.853794196548546e-26 -1.272327838697627e-19 1.077577464518492e-26 -9.36879952056614e-19 
    -1 -1.271319786970326e-13 -1.11654028061842e-25 -8.711047669146295e-19 
    2.632720564217183e-26 -8.145125957796961e-21 4.256465857012966e-26 -1.889410981331875e-20 3.711522244933969e-26 -3.413580864513888e-20 3.694649257310538e-26 -1.137382524526155e-19 
    -1.11654028061842e-25 -8.711047669146295e-19 -1 -1.302406031659831e-13 
1412537.544622754 -0.9999999999999999 -1.111830960500303e-13 2.229290343020874e-25 -1.156685354149814e-18 -1.175741669613376e-25 -1.198178207917066e-19 1.766843614032392e-26 -3.690215196193193e-20 
    4.237580377507837e-26 -1.674346309325393e-20 3.363983530751899e-26 -7.676781418580069e-21 
    2.229290343020874e-25 -1.156685354149814e-18 -0.9999999999999999 -1.263882247471434e-13 1.767072965795465e-26 -1.051296434727308e-18 7.359655940984552e-26 -1.460665677954155e-19 
    3.468112720168235e-26 -4.709530006159094e-20 3.052968000659071e-26 -1.780767537030448e-20 
    -1.175741669613376e-25 -1.198178207917066e-19 1.767072965795465e-26 -1.051296434727308e-18 -0.9999999999999999 -1.199159604193274e-13 6.50278649968609e-26 -8.392649978898251e-19 
    7.350611232855392e-26 -1.19916724943651e-19 2.646432264219778e-26 -3.217294967498889e-20 
    1.766843614032392e-26 -3.690215196193193e-20 7.359655940984552e-26 -1.460665677954155e-19 6.50278649968609e-26 -8.392649978898251e-19 -0.9999999999999999 -9.682573648034922e-14 
    -7.80448163860004e-26 -8.830082512452459e-19 2.975617829351312e-26 -1.071981884016238e-19 
    4.237580377507837e-26 -1.674346309325393e-20 3.468112720168235e-26 -4.709530006159094e-20 7.350611232855392e-26 -1.19916724943651e-19 -7.80448163860004e-26 -8.830082512452459e-19 
    -1 -1.198278834889248e-13 -7.171029805699219e-26 -8.210150864650531e-19 
    3.363983530751899e-26 -7.676781418580069e-21 3.052968000659071e-26 -1.780767537030448e-20 2.646432264219778e-26 -3.217294967498889e-20 2.975617829351312e-26 -1.071981884016238e-19 
    -7.171029805699219e-26 -8.210150864650531e-19 -1 -1.22776934448895e-13 
1498715.368541934 -0.9999999999999998 -1.049275182045295e-13 1.253889763718237e-25 -1.093791146138611e-18 -1.884165867278027e-25 -1.133029034193369e-19 3.374291424359056e-26 -3.489561700386526e-20 
    4.414515669451596e-26 -1.583304631438143e-20 4.374054685995171e-26 -7.259353171535252e-21 
    1.253889763718237e-25 -1.093791146138611e-18 -0.9999999999999998 -1.191383729197315e-13 -6.093266995724931e-26 -9.941326446579597e-19 5.211739652381861e-26 -1.381243061009765e-19 
    6.300911731474188e-26 -4.453450610093429e-20 4.369843122478444e-26 -1.683937504883238e-20 
    -1.884165867278027e-25 -1.133029034193369e-19 -6.093266995724931e-26 -9.941326446579597e-19 -0.9999999999999998 -1.133652131916807e-13 -4.234417596726369e-26 -7.936305578591965e-19 
    3.008506469147373e-26 -1.133963230639083e-19 3.519889621363918e-26 -3.042357165542033e-20 
    3.374291424359056e-26 -3.489561700386526e-20 5.211739652381861e-26 -1.381243061009765e-19 -4.234417596726369e-26 -7.936305578591965e-19 -0.9999999999999998 -9.160484190902761e-14 
    1.31097581346542e-26 -8.349950653600951e-19 4.482042010466278e-26 -1.013693125738004e-19 
    4.414515669451596e-26 -1.583304631438143e-20 6.300911731474188e-26 -4.453450610093429e-20 3.008506469147373e-26 -1.133963230639083e-19 1.31097581346542e-26 -8.349950653600951e-19 
    -1 -1.133652131916807e-13 -2.721487119544658e-26 -7.763728742760183e-19 
    4.374054685995171e-26 -7.259353171535252e-21 4.369843122478444e-26 -1.683937504883238e-20 3.519889621363918e-26 -3.042357165542033e-20 4.482042010466278e-26 -1.013693125738004e-19 
    -2.721487119544658e-26 -7.763728742760183e-19 -1 -1.160297484507811e-13 
1584893.192461113 -0.9999999999999999 -9.909203863452905e-14 3.767222473306527e-26 -1.030896938127399e-18 -2.503769415936773e-25 -1.067879860469294e-19 4.785830939598846e-26 -3.288908204579219e-20 
    4.544604690209319e-26 -1.492262953550919e-20 5.246927010053344e-26 -6.841924924479099e-21 
    3.767222473306527e-26 -1.030896938127399e-18 -0.9999999999999999 -1.126436238692617e-13 -1.306069931945953e-25 -9.369688545886066e-19 3.264816405464565e-26 -1.301820444065346e-19 
    8.786244300624878e-26 -4.197371214026206e-20 5.516180472193372e-26 -1.587107472735165e-20 
    -2.503769415936773e-25 -1.067879860469294e-19 -1.306069931945953e-25 -9.369688545886066e-19 -0.9999999999999999 -1.068752122929777e-13 -1.377748755882567e-25 -7.479961178285554e-19 
    -8.802121668462608e-27 -1.068759211841506e-19 4.276349642605531e-26 -2.867419363584973e-20 
    4.785830939598846e-26 -3.288908204579219e-20 3.264816405464565e-26 -1.301820444065346e-19 -1.377748755882567e-25 -7.479961178285554e-19 -0.9999999999999999 -8.629602846450357e-14 
    9.426937483905555e-26 -7.869818794749356e-19 5.796615961646996e-26 -9.554043674597504e-20 
    4.544604690209319e-26 -1.492262953550919e-20 8.786244300624878e-26 -4.197371214026206e-20 -8.802121668462608e-27 -1.068759211841506e-19 9.426937483905555e-26 -7.869818794749356e-19 
    -1 -1.06796713591453e-13 1.261190930474042e-26 -7.317306620869814e-19 
    5.246927010053344e-26 -6.841924924479099e-21 5.516180472193372e-26 -1.587107472735165e-20 4.276349642605531e-26 -2.867419363584973e-20 5.796615961646996e-26 -9.554043674597504e-20 
    1.261190930474042e-26 -7.317306620869814e-19 -1 -1.094250580357734e-13 
1681586.301250017 -0.9999999999999999 -9.382528795827793e-14 1.042519976707444e-25 -9.748424910745622e-19 -5.895299104433815e-26 -1.00981372936313e-19 4.842413702783556e-26 -3.110073652916904e-20 
    4.025275151681796e-26 -1.411120807133082e-20 4.685264415915041e-26 -6.469895740594878e-21 
    1.042519976707444e-25 -9.748424910745622e-19 -0.9999999999999999 -1.067038750439298e-13 -1.593589444027546e-26 -8.860217030084155e-19 6.686436166275916e-26 -1.231034227223246e-19 
    5.828905091503632e-26 -3.969140790977506e-20 5.734870463970392e-26 -1.500809762474275e-20 
    -5.895299104433815e-26 -1.00981372936313e-19 -1.593589444027546e-26 -8.860217030084155e-19 -0.9999999999999999 -1.009307153158789e-13 -3.663751849012413e-26 -7.073241279181761e-19 
    5.821801984338913e-27 -1.010645756411725e-19 4.570514044568612e-26 -2.711502321540495e-20 
    4.842413702783556e-26 -3.110073652916904e-20 6.686436166275916e-26 -1.231034227223246e-19 -3.663751849012413e-26 -7.073241279181761e-19 -0.9999999999999999 -8.183487929232624e-14 
    1.0598966707762e-25 -7.441900861557763e-19 6.573490954319782e-26 -9.034548157818942e-20 
    4.025275151681796e-26 -1.411120807133082e-20 5.828905091503632e-26 -3.969140790977506e-20 5.821801984338913e-27 -1.010645756411725e-19 1.0598966707762e-25 -7.441900861557763e-19 
    -1 -1.009307153158789e-13 -2.99181317356291e-26 -6.919431317053494e-19 
    4.685264415915041e-26 -6.469895740594878e-21 5.734870463970392e-26 -1.500809762474275e-20 4.570514044568612e-26 -2.711502321540495e-20 6.573490954319782e-26 -9.034548157818942e-20 
    -2.99181317356291e-26 -6.919431317053494e-19 -1 -1.031511613651293e-13 
1778279.410038922 -0.9999999999999999 -8.831587238839442e-14 1.629393885860349e-25 -9.187880440217208e-19 1.120221993593214e-25 -9.517475982537161e-20 4.862561937507085e-26 -2.931239101254614e-20 
    3.53725144837861e-26 -1.329978660715103e-20 4.155384241984167e-26 -6.097866556707176e-21 
    1.629393885860349e-25 -9.187880440217208e-19 -0.9999999999999999 -1.003937354461534e-13 8.636450174739699e-26 -8.350745514282114e-19 9.694144204198336e-26 -1.160248010381063e-19 
    3.156724832778382e-26 -3.740910367926839e-20 5.89391744972093e-26 -1.414512052213434e-20 
    1.120221993593214e-25 -9.517475982537161e-20 8.636450174739699e-26 -8.350745514282114e-19 -0.9999999999999999 -9.525263324623486e-14 5.373033413842902e-26 -6.666521380077839e-19 
    1.881897776576538e-26 -9.525323009819258e-20 4.804106601839319e-26 -2.555585279496018e-20 
    4.862561937507085e-26 -2.931239101254614e-20 9.694144204198336e-26 -1.160248010381063e-19 5.373033413842902e-26 -6.666521380077839e-19 -0.9999999999999999 -7.691141632629818e-14 
    1.157726130561654e-25 -7.013982928366168e-19 7.224776577960245e-26 -8.51505264104034e-20 
    3.53725144837861e-26 -1.329978660715103e-20 3.156724832778382e-26 -3.740910367926839e-20 1.881897776576538e-26 -9.525323009819258e-20 1.157726130561654e-25 -7.013982928366168e-19 
    -1 -9.518267117674045e-14 -6.763598458486383e-26 -6.52155601323715e-19 
    4.155384241984167e-26 -6.097866556707176e-21 5.89391744972093e-26 -1.414512052213434e-20 4.804106601839319e-26 -2.555585279496018e-20 7.224776577960245e-26 -8.51505264104034e-20 
    -6.763598458486383e-26 -6.52155601323715e-19 -1 -9.752518562746415e-14 
1850607.045015574 -0.9999999999999998 -8.538759297112673e-14 1.229108568140189e-25 -8.854821763209367e-19 8.42137091742778e-26 -9.172469065604422e-20 4.429799309608783e-26 -2.82498293469464e-20 
    4.305337862262269e-26 -1.281767336990446e-20 4.35289340929102e-26 -5.876818819600452e-21 
    1.229108568140189e-25 -8.854821763209367e-19 -0.9999999999999998 -9.693391242722836e-14 1.189241818180784e-25 -8.048033774199873e-19 7.849954403495201e-26 -1.11818951874731e-19 
    4.535141451220593e-26 -3.605304090483304e-20 5.236369197924455e-26 -1.363235905312717e-20 
    8.42137091742778e-26 -9.172469065604422e-20 1.189241818180784e-25 -8.048033774199873e-19 -0.9999999999999998 -9.160484190902761e-14 3.292366296098563e-26 -6.424862108355279e-19 
    3.039691036089581e-26 -9.180033104272334e-20 5.128664055517405e-26 -2.462947066769701e-20 
    4.429799309608783e-26 -2.82498293469464e-20 7.849954403495201e-26 -1.11818951874731e-19 3.292366296098563e-26 -6.424862108355279e-19 -0.9999999999999998 -7.428536272487518e-14 
    7.847537517438e-26 -6.759728397199919e-19 5.903439472531791e-26 -8.206384088389703e-20 
    4.305337862262269e-26 -1.281767336990446e-20 4.535141451220593e-26 -3.605304090483304e-20 3.039691036089581e-26 -9.180033104272334e-20 7.847537517438e-26 -6.759728397199919e-19 
    -1 -9.160484190902763e-14 -6.211120231722767e-26 -6.285151651562105e-19 
    4.35289340929102e-26 -5.876818819600452e-21 5.236369197924455e-26 -1.363235905312717e-20 5.128664055517405e-26 -2.462947066769701e-20 5.903439472531791e-26 -8.206384088389703e-20 
    -6.211120231722767e-26 -6.285151651562105e-19 -1 -9.382528795827795e-14 
