! Touchstone file version 1.1
! Written by SMATRIXIO.2.8.1
! Date : Wed Jun  4 14:55:02 2025
# Hz S RI R 50.000000	
! Port[1] in
! Port[2] in 2
! Port[3] in 3
! Port[4] in 4
! Port[5] in 5
! Port[6] in 6
! Port[7] in 7
1000000 -1 -1.496345866208289e-13 -2.688369975808563e-25 -1.354772167941038e-18 1.173987754455393e-25 -1.570908281699926e-19 1.324107431774182e-26 -4.850512035086547e-20 
    3.836754001775182e-26 -2.165783106101869e-20 7.787951305404386e-26 -1.213635703866427e-20 2.686621072412903e-26 -6.127469943130726e-21 
    -2.688369975808563e-25 -1.354772167941038e-18 -0.9999999999999999 -1.690058957272339e-13 2.986380490608869e-25 -1.502894080794874e-18 1.091444863523632e-26 -2.108664930959615e-19 
    1.317243759042659e-25 -6.704896554413866e-20 5.755500207393162e-26 -3.098133681317702e-20 3.293651747586391e-26 -1.387003867372196e-20 
    1.173987754455393e-25 -1.570908281699926e-19 2.986380490608869e-25 -1.502894080794874e-18 -0.9999999999999999 -1.673968483115803e-13 9.418667791089456e-26 -1.341265056166238e-18 
    -8.001172460586902e-26 -1.88491923456556e-19 8.48349594632304e-26 -6.173300380729512e-20 2.639604427096068e-26 -2.282666171657735e-20 
    1.324107431774182e-26 -4.850512035086547e-20 1.091444863523632e-26 -2.108664930959615e-19 9.418667791089456e-26 -1.341265056166238e-18 -0.9999999999999999 -1.36655789159104e-13 
    -1.205915030726724e-25 -1.401657025817301e-18 1.858659316712142e-26 -2.071862427967994e-19 3.785430952316357e-26 -5.4201364955371e-20 
    3.836754001775182e-26 -2.165783106101869e-20 1.317243759042659e-25 -6.704896554413866e-20 -8.001172460586902e-26 -1.88491923456556e-19 -1.205915030726724e-25 -1.401657025817301e-18 
    -1 -1.49078455985787e-13 -1.510788170810225e-25 -1.575857970274515e-18 1.134833818133642e-25 -1.869931322641965e-19 
    7.787951305404386e-26 -1.213635703866427e-20 5.755500207393162e-26 -3.098133681317702e-20 8.48349594632304e-26 -6.173300380729512e-20 1.858659316712142e-26 -2.071862427967994e-19 
    -1.510788170810225e-25 -1.575857970274515e-18 -1 -1.831692015330043e-13 3.464665682744291e-25 -1.508198327643367e-18 
    2.686621072412903e-26 -6.127469943130726e-21 3.293651747586391e-26 -1.387003867372196e-20 2.639604427096068e-26 -2.282666171657735e-20 3.785430952316357e-26 -5.4201364955371e-20 
    1.134833818133642e-25 -1.869931322641965e-19 3.464665682744291e-25 -1.508198327643367e-18 -1 -1.37803723607262e-13 
1061009.227150982 -1 -1.413428334122346e-13 -1.9504738199888e-25 -1.281107840918562e-18 -4.309864794082626e-26 -1.485492194696093e-19 4.486488412495536e-26 -4.586767668903874e-20 
    1.895952254841418e-27 -2.04802394071364e-20 6.421854529315552e-26 -1.147641592703919e-20 3.092336559808946e-26 -5.794286235325178e-21 
    -1.9504738199888e-25 -1.281107840918562e-18 -0.9999999999999998 -1.595504910160872e-13 1.284816185670873e-25 -1.421175012414083e-18 1.760573133068798e-26 -1.994006334721883e-19 
    6.063341511805232e-26 -6.340327212759783e-20 6.57027996430597e-26 -2.929672474649245e-20 3.989611383972588e-26 -1.31158650052673e-20 
    -4.309864794082626e-26 -1.485492194696093e-19 1.284816185670873e-25 -1.421175012414083e-18 -0.9999999999999998 -1.58218223386537e-13 5.506229754116712e-25 -1.268334410397936e-18 
    -3.697948238817246e-26 -1.782429283396613e-19 2.408003360542889e-26 -5.837622479678129e-20 2.916941585748997e-26 -2.15854665870522e-20 
    4.486488412495536e-26 -4.586767668903874e-20 1.760573133068798e-26 -1.994006334721883e-19 5.506229754116712e-25 -1.268334410397936e-18 -0.9999999999999998 -1.289083355364329e-13 
    -2.291591322918933e-25 -1.325442571894693e-18 6.552548468347024e-26 -1.959205931724333e-19 3.828088116824994e-26 -5.125419756679108e-20 
    1.895952254841418e-27 -2.04802394071364e-20 6.063341511805232e-26 -6.340327212759783e-20 -3.697948238817246e-26 -1.782429283396613e-19 -2.291591322918933e-25 -1.325442571894693e-18 
    -1 -1.408987442023846e-13 -1.541513324263695e-26 -1.490171221918336e-18 1.368848253272514e-25 -1.768254321347588e-19 
    6.421854529315552e-26 -1.147641592703919e-20 6.57027996430597e-26 -2.929672474649245e-20 2.408003360542889e-26 -5.837622479678129e-20 6.552548468347024e-26 -1.959205931724333e-19 
    -1.541513324263695e-26 -1.490171221918336e-18 -1 -1.728731673115891e-13 4.052948354369514e-26 -1.426190722660095e-18 
    3.092336559808946e-26 -5.794286235325178e-21 3.989611383972588e-26 -1.31158650052673e-20 2.916941585748997e-26 -2.15854665870522e-20 3.828088116824994e-26 -5.125419756679108e-20 
    1.368848253272514e-25 -1.768254321347588e-19 4.052948354369514e-26 -1.426190722660095e-18 -1 -1.302406031659831e-13 
1122018.454301963 -1 -1.333619656974663e-13 -1.280625910062463e-25 -1.207443513896084e-18 -1.8587289994659e-25 -1.400076107690713e-19 7.276908471800095e-26 -4.323023302719286e-20 
    -3.062138340275636e-26 -1.930264775319602e-20 5.164165632179924e-26 -1.081647481540029e-20 3.434592527984452e-26 -5.461102527517764e-21 
    -1.280625910062463e-25 -1.207443513896084e-18 -0.9999999999999999 -1.50626663118521e-13 -2.397389920884417e-26 -1.339455944033274e-18 2.345924354512877e-26 -1.87934773848415e-19 
    -3.105742280855474e-27 -5.975757871098552e-20 7.255366267234845e-26 -2.761211267980646e-20 4.584938785290078e-26 -1.236169133680987e-20 
    -1.8587289994659e-25 -1.400076107690713e-19 -2.397389920884417e-26 -1.339455944033274e-18 -0.9999999999999999 -1.491925981303547e-13 9.539791112088589e-25 -1.19540376462949e-18 
    1.604351304857659e-27 -1.679939332227573e-19 -3.021828581698996e-26 -5.501944578621081e-20 3.145878054727051e-26 -2.034427145752687e-20 
    7.276908471800095e-26 -4.323023302719286e-20 2.345924354512877e-26 -1.87934773848415e-19 9.539791112088589e-25 -1.19540376462949e-18 -0.9999999999999999 -1.217946002640479e-13 
    -3.244871549398621e-25 -1.249228117972078e-18 1.069500749499434e-25 -1.846549435480574e-19 3.842168694368881e-26 -4.830703017821125e-20 
    -3.062138340275636e-26 -1.930264775319602e-20 -3.105742280855474e-27 -5.975757871098552e-20 1.604351304857659e-27 -1.679939332227573e-19 -3.244871549398621e-25 -1.249228117972078e-18 
    -1 -1.328663138039346e-13 1.055916103502468e-25 -1.404484473562147e-18 1.568854011105784e-25 -1.666577320053189e-19 
    5.164165632179924e-26 -1.081647481540029e-20 7.255366267234845e-26 -2.761211267980646e-20 -3.021828581698996e-26 -5.501944578621081e-20 1.069500749499434e-25 -1.846549435480574e-19 
    1.055916103502468e-25 -1.404484473562147e-18 -1 -1.632497227683922e-13 -2.323906576685817e-25 -1.344183117676764e-18 
    3.434592527984452e-26 -5.461102527517764e-21 4.584938785290078e-26 -1.236169133680987e-20 3.145878054727051e-26 -2.034427145752687e-20 3.842168694368881e-26 -4.830703017821125e-20 
    1.568854011105784e-25 -1.666577320053189e-19 -2.323906576685817e-25 -1.344183117676764e-18 -1 -1.228176979536473e-13 
1190471.933048065 -1 -1.257997110674825e-13 2.584783521021659e-25 -1.141789076923433e-18 -1.946736861270337e-25 -1.323947765786617e-19 5.854846154463169e-26 -4.087960232389212e-20 
    6.980545259570014e-27 -1.825305487263038e-20 6.16318306791929e-26 -1.022834313458679e-20 3.923570580681597e-26 -5.164166387851891e-21 
    2.584783521021659e-25 -1.141789076923433e-18 -0.9999999999999998 -1.422310118319347e-13 -7.393429661379796e-27 -1.266623720026827e-18 3.866820592221421e-26 -1.777159687736385e-19 
    2.33475495220011e-26 -5.650824230146348e-20 6.942632842054613e-26 -2.611070376483552e-20 5.093013236745675e-26 -1.168952874222679e-20 
    -1.946736861270337e-25 -1.323947765786617e-19 -7.393429661379796e-27 -1.266623720026827e-18 -0.9999999999999998 -1.408987442023846e-13 3.625400584083452e-25 -1.130404143950965e-18 
    5.2503143068635e-26 -1.588592147007986e-19 7.497705156961491e-27 -5.202783996121578e-20 4.609852674497718e-26 -1.923805200530245e-20 
    5.854846154463169e-26 -4.087960232389212e-20 3.866820592221421e-26 -1.777159687736385e-19 3.625400584083452e-25 -1.130404143950965e-18 -0.9999999999999998 -1.151415700310809e-13 
    -2.12359284655176e-25 -1.181301975273401e-18 6.617035321462455e-26 -1.746144146378786e-19 4.643118158468163e-26 -4.568035216918266e-20 
    6.980545259570014e-27 -1.825305487263038e-20 2.33475495220011e-26 -5.650824230146348e-20 5.2503143068635e-26 -1.588592147007986e-19 -2.12359284655176e-25 -1.181301975273401e-18 
    -1 -1.253556218576324e-13 2.132785232141549e-25 -1.328116282541127e-18 1.005362417320918e-25 -1.575957812547024e-19 
    6.16318306791929e-26 -1.022834313458679e-20 6.942632842054613e-26 -2.611070376483552e-20 7.497705156961491e-27 -5.202783996121578e-20 6.617035321462455e-26 -1.746144146378786e-19 
    2.132785232141549e-25 -1.328116282541127e-18 -1 -1.542214204978865e-13 -1.249213879462923e-25 -1.271093812713802e-18 
    3.923570580681597e-26 -5.164166387851891e-21 5.093013236745675e-26 -1.168952874222679e-20 4.609852674497718e-26 -1.923805200530245e-20 4.643118158468163e-26 -4.568035216918266e-20 
    1.005362417320918e-25 -1.575957812547024e-19 -1.249213879462923e-25 -1.271093812713802e-18 -1 -1.160297484507811e-13 
1258925.411794167 -1 -1.188589769954956e-13 6.013668339650522e-25 -1.076134639950666e-18 -2.013000691479157e-25 -1.247819423882525e-19 4.550820531602121e-26 -3.852897162058711e-20 
    4.044956727372661e-26 -1.720346199199556e-20 7.015021613277521e-26 -9.640211453766153e-21 4.33484093581006e-26 -4.867230248183081e-21 
    6.013668339650522e-25 -1.076134639950666e-18 -0.9999999999999999 -1.342461548095975e-13 7.430163231551879e-27 -1.19379149602038e-18 5.198142074395032e-26 -1.674971636988609e-19 
    4.677802883072898e-26 -5.325890589193048e-20 6.620494767703509e-26 -2.460929484986481e-20 5.513987213681114e-26 -1.101736614764259e-20 
    -2.013000691479157e-25 -1.247819423882525e-19 7.430163231551879e-27 -1.19379149602038e-18 -0.9999999999999999 -1.329680430446075e-13 -1.668474919636479e-25 -1.065404523272163e-18 
    9.753834015442792e-26 -1.497244961788254e-19 4.106530408144019e-26 -4.903623413619636e-20 5.885793301371596e-26 -1.813183255306865e-20 
    4.550820531602121e-26 -3.852897162058711e-20 5.198142074395032e-26 -1.674971636988609e-19 -1.668474919636479e-25 -1.065404523272163e-18 -0.9999999999999999 -1.085495517530855e-13 
    -1.110972843449862e-25 -1.113375832574716e-18 2.941161302022481e-26 -1.645738857276914e-19 5.327930472784928e-26 -4.305367416015304e-20 
    4.044956727372661e-26 -1.720346199199556e-20 4.677802883072898e-26 -5.325890589193048e-20 9.753834015442792e-26 -1.497244961788254e-19 -1.110972843449862e-25 -1.113375832574716e-18 
    -1 -1.184172267587445e-13 3.079209122034574e-25 -1.251748091520099e-18 4.968633587476822e-26 -1.485338305040678e-19 
    7.015021613277521e-26 -9.640211453766153e-21 6.620494767703509e-26 -2.460929484986481e-20 4.106530408144019e-26 -4.903623413619636e-20 2.941161302022481e-26 -1.645738857276914e-19 
    3.079209122034574e-25 -1.251748091520099e-18 -1 -1.454964685749897e-13 -2.835814021632734e-26 -1.198004507750832e-18 
    4.33484093581006e-26 -4.867230248183081e-21 5.513987213681114e-26 -1.101736614764259e-20 5.885793301371596e-26 -1.813183255306865e-20 5.327930472784928e-26 -4.305367416015304e-20 
    4.968633587476822e-26 -1.485338305040678e-19 -2.835814021632734e-26 -1.198004507750832e-18 -1 -1.094613885095194e-13 
1335731.47820846 -1 -1.124770347719806e-13 4.672432367208578e-25 -1.017620227956157e-18 6.449314520179029e-26 -1.179969558661572e-19 3.585380591678407e-26 -3.643398200228615e-20 
    2.678871159817079e-26 -1.626802873800327e-20 6.191517103221212e-26 -9.116028985505994e-21 4.331804210883297e-26 -4.602578677553783e-21 
    4.672432367208578e-25 -1.017620227956157e-18 -0.9999999999999998 -1.271319786970326e-13 1.894039685413423e-25 -1.128879493058687e-18 5.676285070311035e-26 -1.583895655584857e-19 
    2.70226132890432e-26 -5.036296402273361e-20 6.302447753777809e-26 -2.327117962660935e-20 5.452678118903385e-26 -1.041830017145782e-20 
    6.449314520179029e-26 -1.179969558661572e-19 1.894039685413423e-25 -1.128879493058687e-18 -0.9999999999999998 -1.257997110674824e-13 7.484247732186225e-26 -1.007473617198984e-18 
    3.212380522639364e-26 -1.415832717502326e-19 5.5033159485707e-26 -4.636988359982268e-20 5.109526575033854e-26 -1.714592283473874e-20 
    3.585380591678407e-26 -3.643398200228615e-20 5.676285070311035e-26 -1.583895655584857e-19 7.484247732186225e-26 -1.007473617198984e-18 -0.9999999999999998 -1.027070721552792e-13 
    2.607544838283862e-26 -1.052836455776382e-18 4.198502048278588e-26 -1.556252548426517e-19 4.68336728162446e-26 -4.071264587414636e-20 
    2.678871159817079e-26 -1.626802873800327e-20 2.70226132890432e-26 -5.036296402273361e-20 3.212380522639364e-26 -1.415832717502326e-19 2.607544838283862e-26 -1.052836455776382e-18 
    -1 -1.120329455621305e-13 2.308706501307951e-25 -1.18368485146933e-18 8.879625448822234e-26 -1.404573978046941e-19 
    6.191517103221212e-26 -9.116028985505994e-21 6.302447753777809e-26 -2.327117962660935e-20 5.5033159485707e-26 -4.636988359982268e-20 4.198502048278588e-26 -1.556252548426517e-19 
    2.308706501307951e-25 -1.18368485146933e-18 -1 -1.377901197334341e-13 -6.489040058622028e-26 -1.132863445831643e-18 
    4.331804210883297e-26 -4.602578677553783e-21 5.452678118903385e-26 -1.041830017145782e-20 5.109526575033854e-26 -1.714592283473874e-20 4.68336728162446e-26 -4.071264587414636e-20 
    8.879625448822234e-26 -1.404573978046941e-19 -6.489040058622028e-26 -1.132863445831643e-18 -1 -1.035952505749793e-13 
1412537.544622754 -1 -1.059331746890195e-13 3.447837064586967e-25 -9.591058159616331e-19 3.00978190701127e-25 -1.112119693435275e-19 2.702511115823459e-26 -3.433899238398295e-20 
    1.444594991283546e-26 -1.533259548400072e-20 5.418851189647935e-26 -8.591846517240239e-21 4.302010491179161e-26 -4.337927106925825e-21 
    3.447837064586967e-25 -9.591058159616331e-19 -0.9999999999999999 -1.196470114143091e-13 3.504038622474954e-25 -1.063967490096969e-18 6.066935304302401e-26 -1.492819674181104e-19 
    9.246611612804111e-27 -4.746702215352979e-20 5.979577754367335e-26 -2.193306440335402e-20 5.363939481448531e-26 -9.819234195273944e-21 
    3.00978190701127e-25 -1.112119693435275e-19 3.504038622474954e-25 -1.063967490096969e-18 -0.9999999999999999 -1.185078930852249e-13 2.897808682943609e-25 -9.495427111257529e-19 
    -2.637781606800496e-26 -1.334420473216127e-19 6.713786706375534e-26 -4.370353306344555e-20 4.385727264199205e-26 -1.616001311640606e-20 
    2.702511115823459e-26 -3.433899238398295e-20 6.066935304302401e-26 -1.492819674181104e-19 2.897808682943609e-25 -9.495427111257529e-19 -0.9999999999999999 -9.674488982700706e-14 
    1.481676980931099e-25 -9.922970789780333e-19 5.292854054410742e-26 -1.466766239576111e-19 4.079613750045806e-26 -3.837161758813889e-20 
    1.444594991283546e-26 -1.533259548400072e-20 9.246611612804111e-27 -4.746702215352979e-20 -2.637781606800496e-26 -1.334420473216127e-19 1.481676980931099e-25 -9.922970789780333e-19 
    -1 -1.055394644077586e-13 1.607558547007122e-25 -1.115621611418556e-18 1.230977624319018e-25 -1.32380965105311e-19 
    5.418851189647935e-26 -8.591846517240239e-21 5.979577754367335e-26 -2.193306440335402e-20 6.713786706375534e-26 -4.370353306344555e-20 5.292854054410742e-26 -1.466766239576111e-19 
    1.607558547007122e-25 -1.115621611418556e-18 -1 -1.296738640899488e-13 -9.704403007966447e-26 -1.067722383912452e-18 
    4.302010491179161e-26 -4.337927106925825e-21 5.363939481448531e-26 -9.819234195273944e-21 4.385727264199205e-26 -1.616001311640606e-20 4.079613750045806e-26 -3.837161758813889e-20 
    1.230977624319018e-25 -1.32380965105311e-19 -9.704403007966447e-26 -1.067722383912452e-18 -1 -9.755756520031514e-14 
1498715.368541934 -1 -1.000425368961788e-13 -1.169176242086333e-25 -9.069547522221929e-19 1.829229652507357e-25 -1.051648330536662e-19 5.18505641326153e-26 -3.247181785222169e-20 
    2.064685095695474e-26 -1.449890740653989e-20 5.05396236153555e-26 -8.124667165873439e-21 4.559525837791405e-26 -4.102049976591193e-21 
    -1.169176242086333e-25 -9.069547522221929e-19 -0.9999999999999998 -1.129211239818306e-13 2.531345172953806e-25 -1.006114767614323e-18 5.477995843525448e-26 -1.411647961063943e-19 
    2.035127240603272e-26 -4.488603292957807e-20 6.391409824997361e-26 -2.074045909150876e-20 5.301258275706553e-26 -9.285312197971749e-21 
    1.829229652507357e-25 -1.051648330536662e-19 2.531345172953806e-25 -1.006114767614323e-18 -0.9999999999999998 -1.120329455621305e-13 9.779669873608907e-26 -8.979118206209157e-19 
    6.127590974475057e-26 -1.261862009483711e-19 5.769100258443619e-26 -4.132715263729048e-20 4.325663461247558e-26 -1.528131898691092e-20 
    5.18505641326153e-26 -3.247181785222169e-20 5.477995843525448e-26 -1.411647961063943e-19 9.779669873608907e-26 -8.979118206209157e-19 -0.9999999999999998 -9.160484190902761e-14 
    8.8121400067663e-27 -9.3834147000836e-19 5.742985873182552e-26 -1.387011551360532e-19 4.272884292814452e-26 -3.628517624140459e-20 
    2.064685095695474e-26 -1.449890740653989e-20 2.035127240603272e-26 -4.488603292957807e-20 6.127590974475057e-26 -1.261862009483711e-19 8.8121400067663e-27 -9.3834147000836e-19 
    -1 -9.959844768632876e-14 1.422553670577714e-25 -1.054960145610877e-18 6.28835612180781e-26 -1.25182761795772e-19 
    5.05396236153555e-26 -8.124667165873439e-21 6.391409824997361e-26 -2.074045909150876e-20 5.769100258443619e-26 -4.132715263729048e-20 5.742985873182552e-26 -1.387011551360532e-19 
    1.422553670577714e-25 -1.054960145610877e-18 -1 -1.22691086598532e-13 7.980330813723204e-27 -1.009665497642042e-18 
    4.559525837791405e-26 -4.102049976591193e-21 5.301258275706553e-26 -9.285312197971749e-21 4.325663461247558e-26 -1.528131898691092e-20 4.272884292814452e-26 -3.628517624140459e-20 
    6.28835612180781e-26 -1.25182761795772e-19 7.980330813723204e-27 -1.009665497642042e-18 -1 -9.20489311188777e-14 
1584893.192461113 -1 -9.441304135068092e-14 -5.276781257270505e-25 -8.548036884825428e-19 7.656234733664974e-26 -9.911769676368629e-20 7.365202647004834e-26 -3.060464332044396e-20 
    2.604431754033141e-26 -1.366521932907685e-20 4.697151352018297e-26 -7.65748781450608e-21 4.760523424912984e-26 -3.866172846256955e-21 
    -5.276781257270505e-25 -8.548036884825428e-19 -0.9999999999999999 -1.066355111653024e-13 1.648602218467277e-25 -9.482620451316686e-19 4.918848003676305e-26 -1.330476247946781e-19 
    3.01210557619165e-26 -4.230504370562396e-20 6.718488263983174e-26 -1.95478537796635e-20 5.212243136919765e-26 -8.751390200670496e-21 
    7.656234733664974e-26 -9.911769676368629e-20 1.648602218467277e-25 -9.482620451316686e-19 -0.9999999999999999 -1.056202708874643e-13 -7.392093271578512e-26 -8.462809301160416e-19 
    1.390142083164845e-25 -1.189303545750755e-19 4.891072530408207e-26 -3.895077221113367e-20 4.245082273192226e-26 -1.440262485741617e-20 
    7.365202647004834e-26 -3.060464332044396e-20 4.918848003676305e-26 -1.330476247946781e-19 -7.392093271578512e-26 -8.462809301160416e-19 -0.9999999999999999 -8.622397381236527e-14 
    -1.154437577633786e-25 -8.843858610386683e-19 6.108254329474393e-26 -1.307256863144953e-19 4.418417575436001e-26 -3.419873489467037e-20 
    2.604431754033141e-26 -1.366521932907685e-20 3.01210557619165e-26 -4.230504370562396e-20 1.390142083164845e-25 -1.189303545750755e-19 -1.154437577633786e-25 -8.843858610386683e-19 
    -1 -9.406214670227461e-14 1.24877239766855e-25 -9.942986798031981e-19 8.824415004174203e-27 -1.17984558486207e-19 
    4.697151352018297e-26 -7.65748781450608e-21 6.718488263983174e-26 -1.95478537796635e-20 4.891072530408207e-26 -3.895077221113367e-20 6.108254329474393e-26 -1.307256863144953e-19 
    1.24877239766855e-25 -9.942986798031981e-19 -1 -1.155719530220917e-13 1.015334918621346e-25 -9.516086113716221e-19 
    4.760523424912984e-26 -3.866172846256955e-21 5.212243136919765e-26 -8.751390200670496e-21 4.245082273192226e-26 -1.440262485741617e-20 4.418417575436001e-26 -3.419873489467037e-20 
