! Touchstone file version 1.1
! Written by SMATRIXIO.2.8.1
! Date : Wed Jun  4 14:55:14 2025
# Hz S RI R 50.000000	
! Port[1] in
! Port[2] in 2
! Port[3] in 3
! Port[4] in 4
! Port[5] in 5
! Port[6] in 6
! Port[7] in 7
! Port[8] in 8
1000000 -0.9999999999999999 -1.651932421936394e-13 -6.417270887288973e-25 -1.657080947071758e-18 -1.633410379884616e-25 -1.612692057293806e-19 3.727245920290161e-25 -6.537423858699024e-20 
    4.191035284368218e-26 -2.335899459419048e-20 1.384023852082937e-25 -1.147465935137914e-20 5.224590952780639e-26 -7.264137795976291e-21 4.255158659366939e-26 -5.113294806219779e-21 
    -6.417270887288973e-25 -1.657080947071758e-18 -0.9999999999999999 -1.862300889528029e-13 1.099251523221534e-24 -1.36680422920232e-18 -5.668610406482896e-25 -2.512092312683025e-19 
    1.565976487965838e-25 -6.379766203273315e-20 3.386378005175156e-26 -2.581358556828789e-20 6.2353750685809e-26 -1.446626806847832e-20 6.387148432906734e-26 -9.362666669350147e-21 
    -1.633410379884616e-25 -1.612692057293806e-19 1.099251523221534e-24 -1.36680422920232e-18 -0.9999999999999999 -1.760950524258867e-13 -8.75054914038021e-25 -1.332970041011528e-18 
    9.750419505341141e-26 -1.501242145143551e-19 -1.198937518201862e-25 -4.315123645049518e-20 3.612031663145875e-26 -2.002534619094466e-20 -1.104463439891975e-26 -1.14956304808134e-20 
    3.727245920290161e-25 -6.537423858699024e-20 -5.668610406482896e-25 -2.512092312683025e-19 -8.75054914038021e-25 -1.332970041011528e-18 -0.9999999999999999 -1.318735860404695e-13 
    1.50475814638517e-25 -1.473987455214956e-18 -8.947518248048128e-27 -1.911456289456075e-19 9.529408138953112e-27 -6.298291483137192e-20 6.213891712995108e-26 -2.991728673461383e-20 
    4.191035284368218e-26 -2.335899459419048e-20 1.565976487965838e-25 -6.379766203273315e-20 9.750419505341141e-26 -1.501242145143551e-19 1.50475814638517e-25 -1.473987455214956e-18 
    -0.9999999999999999 -1.512877056864542e-13 2.796220639625391e-25 -1.155478057592764e-18 7.682718794808531e-26 -1.739429971606208e-19 -4.905828620489626e-26 -5.914914327067787e-20 
    1.384023852082937e-25 -1.147465935137914e-20 3.386378005175156e-26 -2.581358556828789e-20 -1.198937518201862e-25 -4.315123645049518e-20 -8.947518248048128e-27 -1.911456289456075e-19 
    2.796220639625391e-25 -1.155478057592764e-18 -0.9999999999999999 -1.754132529331915e-13 -2.959035924350353e-25 -1.23165585803637e-18 5.032990310309559e-27 -1.874501210271474e-19 
    5.224590952780639e-26 -7.264137795976291e-21 6.2353750685809e-26 -1.446626806847832e-20 3.612031663145875e-26 -2.002534619094466e-20 9.529408138953112e-27 -6.298291483137192e-20 
    7.682718794808531e-26 -1.739429971606208e-19 -2.959035924350353e-25 -1.23165585803637e-18 -0.9999999999999999 -1.454580778085201e-13 -2.321216064292052e-25 -1.496975064035169e-18 
    4.255158659366939e-26 -5.113294806219779e-21 6.387148432906734e-26 -9.362666669350147e-21 -1.104463439891975e-26 -1.14956304808134e-20 6.213891712995108e-26 -2.991728673461383e-20 
    -4.905828620489626e-26 -5.914914327067787e-20 5.032990310309559e-27 -1.874501210271474e-19 -2.321216064292052e-25 -1.496975064035169e-18 -0.9999999999999999 -1.705579195108372e-13 
1061009.227150982 -0.9999999999999998 -1.559977773372867e-13 -1.38517695400534e-25 -1.566978200188434e-18 1.460538870094263e-25 -1.525001478988813e-19 2.528547832042275e-25 -6.181925664029462e-20 
    -1.882752421101342e-27 -2.2088976704175e-20 7.873998728933552e-26 -1.085079428204484e-20 5.212115919178231e-26 -6.869147921700058e-21 4.812034412326497e-26 -4.835260923670739e-21 
    -1.38517695400534e-25 -1.566978200188434e-18 -0.9999999999999998 -1.759817917805395e-13 7.709018406233691e-25 -1.292484908483182e-18 -1.279676552879672e-25 -2.375497249542621e-19 
    1.078790143382878e-25 -6.03286584157325e-20 3.622138697197587e-26 -2.441002070242008e-20 6.407885404355519e-26 -1.367966757338055e-20 6.335622056287099e-26 -8.853574401817758e-21 
    1.460538870094263e-25 -1.525001478988813e-19 7.709018406233691e-25 -1.292484908483182e-18 -0.9999999999999998 -1.662118291638381e-13 -1.132013651950253e-25 -1.260489711833685e-18 
    2.10857109000163e-25 -1.419612948382918e-19 -3.470336735945448e-26 -4.080486754357384e-20 3.341315146445519e-26 -1.893647994433716e-20 4.809766109371339e-26 -1.087056726390452e-20 
    2.528547832042275e-25 -6.181925664029462e-20 -1.279676552879672e-25 -2.375497249542621e-19 -1.132013651950253e-25 -1.260489711833685e-18 -0.9999999999999998 -1.244674434379322e-13 
    3.849085161649078e-25 -1.393839983105771e-18 1.50211540040111e-25 -1.807521195152499e-19 3.11711442194778e-26 -5.955825143053124e-20 -5.111558829620242e-27 -2.829056393617464e-20 
    -1.882752421101342e-27 -2.2088976704175e-20 1.078790143382878e-25 -6.03286584157325e-20 2.10857109000163e-25 -1.419612948382918e-19 3.849085161649078e-25 -1.393839983105771e-18 
    -0.9999999999999998 -1.426751010417848e-13 9.766016050307929e-26 -1.092649818965173e-18 4.922792335780716e-26 -1.644849022797757e-19 1.835265125378056e-26 -5.59329773689689e-20 
    7.873998728933552e-26 -1.085079428204484e-20 3.622138697197587e-26 -2.441002070242008e-20 -3.470336735945448e-26 -4.080486754357384e-20 1.50211540040111e-25 -1.807521195152499e-19 
    9.766016050307929e-26 -1.092649818965173e-18 -0.9999999999999998 -1.657677399539881e-13 -2.30182386982874e-25 -1.164685200699964e-18 5.598634640205234e-26 -1.772575033180397e-19 
    5.212115919178231e-26 -6.869147921700058e-21 6.407885404355519e-26 -1.367966757338055e-20 3.341315146445519e-26 -1.893647994433716e-20 3.11711442194778e-26 -5.955825143053124e-20 
    4.922792335780716e-26 -1.644849022797757e-19 -2.30182386982874e-25 -1.164685200699964e-18 -0.9999999999999998 -1.373460305235841e-13 -1.804943117303296e-25 -1.415577866360998e-18 
    4.812034412326497e-26 -4.835260923670739e-21 6.335622056287099e-26 -8.853574401817758e-21 4.809766109371339e-26 -1.087056726390452e-20 -5.111558829620242e-27 -2.829056393617464e-20 
    1.835265125378056e-26 -5.59329773689689e-20 5.598634640205234e-26 -1.772575033180397e-19 -1.804943117303296e-25 -1.415577866360998e-18 -0.9999999999999998 -1.613268478554874e-13 
1122018.454301963 -0.9999999999999999 -1.472286320943704e-13 3.108344743599846e-25 -1.476875453304965e-18 4.208886130756847e-25 -1.43731090067823e-19 1.444403473538626e-25 -5.826427469339168e-20 
    -4.09020643379678e-26 -2.081895881408191e-20 2.507287983746028e-26 -1.02269292124165e-20 5.168404200156918e-26 -6.474158047425123e-21 5.278259480478376e-26 -4.557227041117872e-21 
    3.108344743599846e-25 -1.476875453304965e-18 -0.9999999999999999 -1.659777414875656e-13 4.734392735520702e-25 -1.218165587763969e-18 2.639962804455312e-25 -2.238902186394955e-19 
    6.378393750600997e-26 -5.68596547986968e-20 3.809612591136662e-26 -2.300645583655227e-20 6.521565145306349e-26 -1.289306707828363e-20 6.250081005218466e-26 -8.344482134286815e-21 
    4.208886130756847e-25 -1.43731090067823e-19 4.734392735520702e-25 -1.218165587763969e-18 -0.9999999999999999 -1.569448805779334e-13 5.665083993042883e-25 -1.18800938265543e-18 
    3.105644954571918e-25 -1.337983751621497e-19 4.143949674710828e-26 -3.845849863649312e-20 3.07914493796118e-26 -1.784761369772948e-20 1.005075944849146e-25 -1.024550404671016e-20 
    1.444403473538626e-25 -5.826427469339168e-20 2.639962804455312e-25 -2.238902186394955e-19 5.665083993042883e-25 -1.18800938265543e-18 -0.9999999999999999 -1.175324569908231e-13 
    5.91439937546285e-25 -1.313692510996552e-18 2.911227953814118e-25 -1.703586100847681e-19 5.026444506332468e-26 -5.613358802968367e-20 -6.50167159639432e-26 -2.666384113759259e-20 
    -4.09020643379678e-26 -2.081895881408191e-20 6.378393750600997e-26 -5.68596547986968e-20 3.105644954571918e-25 -1.337983751621497e-19 5.91439937546285e-25 -1.313692510996552e-18 
    -0.9999999999999999 -1.348353096359901e-13 -6.512434423222255e-26 -1.029821580337555e-18 2.432222768017236e-26 -1.550268073989263e-19 7.831804630826521e-26 -5.271681146718745e-20 
    2.507287983746028e-26 -1.02269292124165e-20 3.809612591136662e-26 -2.300645583655227e-20 4.143949674710828e-26 -3.845849863649312e-20 2.911227953814118e-25 -1.703586100847681e-19 
    -6.512434423222255e-26 -1.029821580337555e-18 -0.9999999999999999 -1.56337226558552e-13 -1.701689227156435e-25 -1.097714543363555e-18 1.010484146431518e-25 -1.670648856089192e-19 
    5.168404200156918e-26 -6.474158047425123e-21 6.521565145306349e-26 -1.289306707828363e-20 3.07914493796118e-26 -1.784761369772948e-20 5.026444506332468e-26 -5.613358802968367e-20 
    2.432222768017236e-26 -1.550268073989263e-19 -1.701689227156435e-25 -1.097714543363555e-18 -0.9999999999999999 -1.296396482774142e-13 -1.333527664796064e-25 -1.334180668686825e-18 
    5.278259480478376e-26 -4.557227041117872e-21 6.250081005218466e-26 -8.344482134286815e-21 1.005075944849146e-25 -1.024550404671016e-20 -6.50167159639432e-26 -2.666384113759259e-20 
    7.831804630826521e-26 -5.271681146718745e-20 1.010484146431518e-25 -1.670648856089192e-19 -1.333527664796064e-25 -1.334180668686825e-18 -0.9999999999999999 -1.52009905781028e-13 
1190471.933048065 -0.9999999999999998 -1.391223873629843e-13 6.748479702342385e-26 -1.396570861632333e-18 2.762647730270155e-25 -1.359159252092115e-19 -6.88797300095373e-26 -5.509629130763076e-20 
    3.133068638802692e-26 -1.968693962720778e-20 4.420027056832451e-26 -9.670807356271077e-21 5.077488972174004e-26 -6.122133857894736e-21 5.491492823925204e-26 -4.309425737996255e-21 
    6.748479702342385e-26 -1.396570861632333e-18 -0.9999999999999998 -1.568859557569868e-13 4.458287510068779e-25 -1.151928724832854e-18 -2.030748582420833e-26 -2.117163698593765e-19 
    7.500184701723462e-26 -5.376789654188418e-20 7.26202732588202e-26 -2.175552020606783e-20 6.277005806033004e-26 -1.219201014802164e-20 6.394601943180998e-26 -7.890749081986379e-21 
    2.762647730270155e-25 -1.359159252092115e-19 4.458287510068779e-25 -1.151928724832854e-18 -0.9999999999999998 -1.484482607698356e-13 6.103463799985149e-25 -1.123411935770351e-18 
    1.858672710265144e-25 -1.265231675691123e-19 2.401691979435643e-26 -3.636740921132483e-20 3.003909777155255e-26 -1.687715021220328e-20 7.004593189705277e-26 -9.688395415565203e-21 
    -6.88797300095373e-26 -5.509629130763076e-20 -2.030748582420833e-26 -2.117163698593765e-19 6.103463799985149e-25 -1.123411935770351e-18 -0.9999999999999998 -1.111447671424304e-13 
    1.384623535462645e-25 -1.24226085568395e-18 -3.705394101431769e-26 -1.610952543170895e-19 6.660759282037898e-26 -5.308134868442572e-20 -1.181785471961042e-26 -2.521395320999573e-20 
    3.133068638802692e-26 -1.968693962720778e-20 7.500184701723462e-26 -5.376789654188418e-20 1.858672710265144e-25 -1.265231675691123e-19 1.384623535462645e-25 -1.24226085568395e-18 
    -0.9999999999999998 -1.271319786970326e-13 1.011962976952233e-25 -9.738253232582461e-19 3.294171438145216e-26 -1.465973289817202e-19 7.610220563078222e-26 -4.985034966038442e-20 
    4.420027056832451e-26 -9.670807356271077e-21 7.26202732588202e-26 -2.175552020606783e-20 2.401691979435643e-26 -3.636740921132483e-20 -3.705394101431769e-26 -1.610952543170895e-19 
    1.011962976952233e-25 -9.738253232582461e-19 -0.9999999999999998 -1.475600823501355e-13 -9.919601421847314e-26 -1.038026909484122e-18 1.465789662989492e-25 -1.579806301114825e-19 
    5.077488972174004e-26 -6.122133857894736e-21 6.277005806033004e-26 -1.219201014802164e-20 3.003909777155255e-26 -1.687715021220328e-20 6.660759282037898e-26 -5.308134868442572e-20 
    3.294171438145216e-26 -1.465973289817202e-19 -9.919601421847314e-26 -1.038026909484122e-18 -0.9999999999999998 -1.22691086598532e-13 9.871152021737521e-26 -1.261635244769921e-18 
    5.491492823925204e-26 -4.309425737996255e-21 6.394601943180998e-26 -7.890749081986379e-21 7.004593189705277e-26 -9.688395415565203e-21 -1.181785471961042e-26 -2.521395320999573e-20 
    7.610220563078222e-26 -4.985034966038442e-20 1.465789662989492e-25 -1.579806301114825e-19 9.871152021737521e-26 -1.261635244769921e-18 -0.9999999999999998 -1.435632794614849e-13 
1258925.411794167 -0.9999999999999999 -1.312176564741241e-13 -1.498227686969579e-25 -1.316266269959663e-18 1.456408757720967e-25 -1.281007603504626e-19 -2.585715610963748e-25 -5.192830792113318e-20 
    9.55122904842192e-26 -1.85549204400975e-20 6.097100460673088e-26 -9.114685500093004e-21 4.964710973825733e-26 -5.770109668365573e-21 5.647196274698794e-26 -4.061624434876163e-21 
    -1.498227686969579e-25 -1.316266269959663e-18 -0.9999999999999999 -1.479278177984514e-13 4.184330065204949e-25 -1.085691861901739e-18 -2.735666943166987e-25 -1.995425210789163e-19 
    8.453078920221285e-26 -5.067613828506992e-20 1.029359543345771e-25 -2.050458457553588e-20 6.019790542585366e-26 -1.14909532177602e-20 6.483418438244575e-26 -7.437016029687488e-21 
    1.456408757720967e-25 -1.281007603504626e-19 4.184330065204949e-25 -1.085691861901739e-18 -0.9999999999999999 -1.398772721528487e-13 6.45600408270245e-25 -1.058814488885271e-18 
    7.356846369494697e-26 -1.192479599759648e-19 8.338793636037151e-27 -3.427631978614906e-20 2.918072092679359e-26 -1.590668672667723e-20 4.245899703144284e-26 -9.131286784334972e-21 
    -2.585715610963748e-25 -5.192830792113318e-20 -2.735666943166987e-25 -1.995425210789163e-19 6.45600408270245e-25 -1.058814488885271e-18 -0.9999999999999999 -1.047509124269361e-13 
    -2.661200146102573e-25 -1.170829200371201e-18 -3.293093325277909e-25 -1.518318985488136e-19 8.075692683019246e-26 -5.002910933916365e-20 3.56693695062956e-26 -2.376406528229837e-20 
    9.55122904842192e-26 -1.85549204400975e-20 8.453078920221285e-26 -5.067613828506992e-20 7.356846369494697e-26 -1.192479599759648e-19 -2.661200146102573e-25 -1.170829200371201e-18 
    -0.9999999999999999 -1.201720960916055e-13 2.487968595448921e-25 -9.178290661789125e-19 4.041785413765131e-26 -1.381678505645136e-19 7.365145115122319e-26 -4.698388785358168e-20 
    6.097100460673088e-26 -9.114685500093004e-21 1.029359543345771e-25 -2.050458457553588e-20 8.338793636037151e-27 -3.427631978614906e-20 -3.293093325277909e-25 -1.518318985488136e-19 
    2.487968595448921e-25 -9.178290661789125e-19 -0.9999999999999999 -1.393356997859976e-13 -3.532104243649649e-26 -9.783392756046852e-19 1.862413904753474e-25 -1.488963746140349e-19 
    4.964710973825733e-26 -5.770109668365573e-21 6.019790542585366e-26 -1.14909532177602e-20 2.918072092679359e-26 -1.590668672667723e-20 8.075692683019246e-26 -5.002910933916365e-20 
    4.041785413765131e-26 -1.381678505645136e-19 -3.532104243649649e-26 -9.783392756046852e-19 -0.9999999999999999 -1.155414581679183e-13 3.049217799879503e-25 -1.189089820852978e-18 
    5.647196274698794e-26 -4.061624434876163e-21 6.483418438244575e-26 -7.437016029687488e-21 4.245899703144284e-26 -9.131286784334972e-21 3.56693695062956e-26 -2.376406528229837e-20 
    7.365145115122319e-26 -4.698388785358168e-20 1.862413904753474e-25 -1.488963746140349e-19 3.049217799879503e-25 -1.189089820852978e-18 -0.9999999999999999 -1.354789711261076e-13 
1335731.47820846 -0.9999999999999998 -1.240233542280822e-13 -1.118661684491454e-25 -1.244695109049106e-18 1.956971468616365e-25 -1.211352296111192e-19 -3.860996853598231e-26 -4.910452836076041e-20 
    6.108018108693581e-26 -1.75459685005348e-20 4.450140431989371e-26 -8.619060522193271e-21 5.154974571377703e-26 -5.456356640625575e-21 5.754691560738462e-26 -3.840774578552283e-21 
    -1.118661684491454e-25 -1.244695109049106e-18 -0.9999999999999998 -1.400105657826844e-13 3.969811958849839e-25 -1.026657732284805e-18 -1.346980604318229e-25 -1.886925378769457e-19 
    9.94697901551732e-26 -4.792063594368275e-20 7.431863699824322e-26 -1.93896704594099e-20 6.299592466698282e-26 -1.086613353889595e-20 6.431100095740325e-26 -7.032629569243469e-21 
    1.956971468616365e-25 -1.211352296111192e-19 3.969811958849839e-25 -1.026657732284805e-18 -0.9999999999999998 -1.324610492152334e-13 3.666695752756212e-25 -1.001240983688689e-18 
    1.230237664594898e-25 -1.12763827620148e-19 6.599033498711243e-26 -3.241249898715345e-20 3.915179687319488e-26 -1.504176364563512e-20 4.10761381780104e-26 -8.634779935420963e-21 
    -3.860996853598231e-26 -4.910452836076041e-20 -1.346980604318229e-25 -1.886925378769457e-19 3.666695752756212e-25 -1.001240983688689e-18 -0.9999999999999998 -9.915435847647867e-14 
    -2.376210862791645e-25 -1.107165755443383e-18 -1.444868798632168e-25 -1.435762443860146e-19 7.935310041314402e-26 -4.730880045468759e-20 3.68417478515039e-26 -2.247194751175789e-20 
    6.108018108693581e-26 -1.75459685005348e-20 9.94697901551732e-26 -4.792063594368275e-20 1.230237664594898e-25 -1.12763827620148e-19 -2.376210862791645e-25 -1.107165755443383e-18 
    -0.9999999999999998 -1.138093024015307e-13 2.893227748793026e-25 -8.679225913312118e-19 5.403730994370253e-26 -1.306550401624569e-19 6.698150695092324e-26 -4.442915593838915e-20 
    4.450140431989371e-26 -8.619060522193271e-21 7.431863699824322e-26 -1.93896704594099e-20 6.599033498711243e-26 -3.241249898715345e-20 -1.444868798632168e-25 -1.435762443860146e-19 
    2.893227748793026e-25 -8.679225913312118e-19 -0.9999999999999998 -1.315728707955332e-13 4.968928984091602e-26 -9.251423185774717e-19 1.973754921092858e-25 -1.408003623867648e-19 
    5.154974571377703e-26 -5.456356640625575e-21 6.299592466698282e-26 -1.086613353889595e-20 3.915179687319488e-26 -1.504176364563512e-20 7.935310041314402e-26 -4.730880045468759e-20 
    5.403730994370253e-26 -1.306550401624569e-19 4.968928984091602e-26 -9.251423185774717e-19 -0.9999999999999998 -1.093684103030301e-13 2.142363216794488e-25 -1.124433510520159e-18 
    5.754691560738462e-26 -3.840774578552283e-21 6.431100095740325e-26 -7.032629569243469e-21 4.10761381780104e-26 -8.634779935420963e-21 3.68417478515039e-26 -2.247194751175789e-20 
    6.698150695092324e-26 -4.442915593838915e-20 1.973754921092858e-25 -1.408003623867648e-19 2.142363216794488e-25 -1.124433510520159e-18 -0.9999999999999998 -1.284642463265828e-13 
1412537.544622754 -0.9999999999999999 -1.169478594205607e-13 -7.73377841816338e-26 -1.173123948138548e-18 2.390859852787695e-25 -1.141696988717589e-19 1.57670765600529e-25 -4.628074879950565e-20 
    3.001069311808032e-26 -1.653701656091166e-20 2.95446265280527e-26 -8.123435544265649e-21 5.292310456914434e-26 -5.142603612886694e-21 5.814511272208471e-26 -3.61992472223107e-21 
    -7.73377841816338e-26 -1.173123948138548e-18 -0.9999999999999999 -1.318408063961956e-13 3.753798426794251e-25 -9.676236026678712e-19 -1.008890823161111e-26 -1.778425546748835e-19 
    1.121621732172364e-25 -4.516513360229227e-20 4.834867200043361e-26 -1.827475634324644e-20 6.509572821630364e-26 -1.024131386003236e-20 6.344255989780052e-26 -6.628243108801325e-21 
    2.390859852787695e-25 -1.141696988717589e-19 3.753798426794251e-25 -9.676236026678712e-19 -0.9999999999999999 -1.246657498982245e-13 1.157797818034352e-25 -9.436674784920367e-19 
    1.663314736206537e-25 -1.062796952643126e-19 1.169594381878641e-25 -3.054867818806728e-20 4.77936957199091e-26 -1.417684056458759e-20 3.958680884857134e-26 -8.13827308650736e-21 
    1.57670765600529e-25 -4.628074879950565e-20 -1.008890823161111e-26 -1.778425546748835e-19 1.157797818034352e-25 -9.436674784920367e-19 -0.9999999999999999 -9.335934895498473e-14 
    -2.107354990628616e-25 -1.043502310515563e-18 2.114010520573341e-26 -1.353205902230022e-19 7.760572864755476e-26 -4.458849157021191e-20 3.765627217688523e-26 -2.117982974121757e-20 
    3.001069311808032e-26 -1.653701656091166e-20 1.121621732172364e-25 -4.516513360229227e-20 1.663314736206537e-25 -1.062796952643126e-19 -2.107354990628616e-25 -1.043502310515563e-18 
    -0.9999999999999999 -1.071034933557691e-13 3.236323520544144e-25 -8.180161164835093e-19 6.583775746203152e-26 -1.231422297603991e-19 6.061806431785872e-26 -4.187442402319599e-20 
