! Touchstone file version 1.1
! Written by SMATRIXIO.2.8.1
! Date : Wed Jun  4 14:55:22 2025
# Hz S RI R 50.000000	
! Port[1] in
! Port[2] in 2
! Port[3] in 3
! Port[4] in 4
! Port[5] in 5
! Port[6] in 6
! Port[7] in 7
! Port[8] in 8
! Port[9] in 9
1000000 -1 -1.530078290306376e-13 3.703982299506525e-25 -1.948415175770959e-18 -3.491027247352528e-25 -2.316514035858402e-19 -2.727142145373553e-28 -7.93586479725023e-20 
    7.828558295267782e-26 -2.529761081932624e-20 6.528161957988526e-26 -1.303451726989449e-20 1.108091883553054e-26 -7.652362173741589e-21 6.48471908192785e-26 -4.995794986760514e-21 
    2.36426399725953e-26 -3.218033376225221e-21 
    3.703982299506525e-25 -1.948415175770959e-18 -0.9999999999999999 -1.72228611794199e-13 -8.084753244405626e-26 -1.872839326516683e-18 2.187731986921331e-25 -2.936733420118784e-19 
    4.870508851581653e-26 -6.636099982243449e-20 7.421732564801992e-26 -2.819527837935017e-20 6.25384559088585e-26 -1.465330392856577e-20 4.282602336016313e-26 -8.800305445760334e-21 
    6.859799985421397e-26 -5.33545171854556e-21 
    -3.491027247352528e-25 -2.316514035858402e-19 -8.084753244405626e-26 -1.872839326516683e-18 -0.9999999999999999 -1.659783987884037e-13 -2.417209003245168e-25 -1.882963325206296e-18 
    1.985451055088219e-25 -1.903301502690732e-19 6.999695131409488e-26 -5.749077262108259e-20 -1.082093255334388e-26 -2.473261630485714e-20 4.113247700235209e-26 -1.317338450472757e-20 
    3.977248757351031e-26 -7.342787970754225e-21 
    -2.727142145373553e-28 -7.93586479725023e-20 2.187731986921331e-25 -2.936733420118784e-19 -2.417209003245168e-25 -1.882963325206296e-18 -0.9999999999999999 -1.613281129909249e-13 
    -2.679163593418963e-25 -1.575238560572309e-18 9.20814143162765e-26 -2.152096551154143e-19 1.032257867170035e-25 -6.572750908952481e-20 6.741438305230695e-26 -2.893500440890875e-20 
    2.217579988003959e-26 -1.427926600508881e-20 
    7.828558295267782e-26 -2.529761081932624e-20 4.870508851581653e-26 -6.636099982243449e-20 1.985451055088219e-25 -1.903301502690732e-19 -2.679163593418963e-25 -1.575238560572309e-18 
    -0.9999999999999999 -1.569656926019763e-13 1.112226818272019e-25 -1.180113345751762e-18 1.056942096639657e-25 -1.626988237606757e-19 3.33926750603881e-26 -5.100099369306643e-20 
    -2.034544810000245e-26 -2.077829607092107e-20 
    6.528161957988526e-26 -1.303451726989449e-20 7.421732564801992e-26 -2.819527837935017e-20 6.999695131409488e-26 -5.749077262108259e-20 9.20814143162765e-26 -2.152096551154143e-19 
    1.112226818272019e-25 -1.180113345751762e-18 -0.9999999999999999 -1.743279520294823e-13 3.195037485616232e-26 -1.199944139675767e-18 6.774579352972724e-26 -1.681906816021734e-19 
    8.964946651613029e-26 -4.85855378823549e-20 
    1.108091883553054e-26 -7.652362173741589e-21 6.25384559088585e-26 -1.465330392856577e-20 -1.082093255334388e-26 -2.473261630485714e-20 1.032257867170035e-25 -6.572750908952481e-20 
    1.056942096639657e-25 -1.626988237606757e-19 3.195037485616232e-26 -1.199944139675767e-18 -0.9999999999999999 -1.303226762313359e-13 1.284405882992244e-24 -1.260124173232554e-18 
    -8.826420788956669e-26 -1.645487902398762e-19 
    6.48471908192785e-26 -4.995794986760514e-21 4.282602336016313e-26 -8.800305445760334e-21 4.113247700235209e-26 -1.317338450472757e-20 6.741438305230695e-26 -2.893500440890875e-20 
    3.33926750603881e-26 -5.100099369306643e-20 6.774579352972724e-26 -1.681906816021734e-19 1.284405882992244e-24 -1.260124173232554e-18 -0.9999999999999999 -1.597635002575851e-13 
    -3.222743834136708e-26 -1.240773098763159e-18 
    2.36426399725953e-26 -3.218033376225221e-21 6.859799985421397e-26 -5.33545171854556e-21 3.977248757351031e-26 -7.342787970754225e-21 2.217579988003959e-26 -1.427926600508881e-20 
    -2.034544810000245e-26 -2.077829607092107e-20 8.964946651613029e-26 -4.85855378823549e-20 -8.826420788956669e-26 -1.645487902398762e-19 -3.222743834136708e-26 -1.240773098763159e-18 
    -1 -1.654315330724201e-13 
1061009.227150982 -1 -1.444514578811851e-13 8.063678058634771e-26 -1.842471092032126e-18 1.594357206897174e-25 -2.190554355755789e-19 4.631897585760321e-26 -7.504347376619895e-20 
    2.85323308794298e-26 -2.392203984714376e-20 6.323814834518366e-26 -1.232576948750564e-20 3.674288856479799e-26 -7.236283578905803e-21 6.029476727602099e-26 -4.724134927973923e-21 
    2.919680714841689e-26 -3.043036642662131e-21 
    8.063678058634771e-26 -1.842471092032126e-18 -0.9999999999999998 -1.626591154850376e-13 3.400757932246592e-27 -1.771004844710377e-18 1.037114548930644e-25 -2.777050371160316e-19 
    7.106529346090223e-26 -6.275263486806864e-20 7.161005598400665e-26 -2.66621644729848e-20 6.748775845331158e-26 -1.385655662805407e-20 5.385343106013462e-26 -8.321791554431912e-21 
    5.750681463986472e-26 -5.045327060176238e-21 
    1.594357206897174e-25 -2.190554355755789e-19 3.400757932246592e-27 -1.771004844710377e-18 -0.9999999999999998 -1.568859557569868e-13 -1.400826699282873e-25 -1.780578790662544e-18 
    2.193177111900154e-25 -1.799810884783752e-19 7.235965986541465e-26 -5.436473331674923e-20 2.483742658300867e-26 -2.338779286738162e-20 5.164424855962401e-26 -1.245708930495952e-20 
    3.432399833248402e-26 -6.943552513272817e-21 
    4.631897585760321e-26 -7.504347376619895e-20 1.037114548930644e-25 -2.777050371160316e-19 -1.400826699282873e-25 -1.780578790662544e-18 -0.9999999999999998 -1.524450636584862e-13 
    9.286692063651828e-26 -1.489585862335402e-18 7.118707027240042e-26 -2.035077393005588e-19 7.709588834697312e-26 -6.215356393261323e-20 6.746233911212592e-26 -2.736167120494771e-20 
    3.637825662257732e-26 -1.350282401144254e-20 
    2.85323308794298e-26 -2.392203984714376e-20 7.106529346090223e-26 -6.275263486806864e-20 2.193177111900154e-25 -1.799810884783752e-19 9.286692063651828e-26 -1.489585862335402e-18 
    -0.9999999999999998 -1.484482607698356e-13 4.305088390018745e-26 -1.115945150300013e-18 1.623561843955856e-26 -1.53852251402779e-19 3.119883941977489e-26 -4.822783397956127e-20 
    6.83319339737261e-27 -1.964842378642185e-20 
    6.323814834518366e-26 -1.232576948750564e-20 7.161005598400665e-26 -2.66621644729848e-20 7.235965986541465e-26 -5.436473331674923e-20 7.118707027240042e-26 -2.035077393005588e-19 
    4.305088390018745e-26 -1.115945150300013e-18 -0.9999999999999998 -1.648795615342879e-13 8.298411215232591e-26 -1.134697803626025e-18 3.385424430794062e-26 -1.59045396833291e-19 
    5.255133257011922e-26 -4.594372834476235e-20 
    3.674288856479799e-26 -7.236283578905803e-21 6.748775845331158e-26 -1.385655662805407e-20 2.483742658300867e-26 -2.338779286738162e-20 7.709588834697312e-26 -6.215356393261323e-20 
    1.623561843955856e-26 -1.53852251402779e-19 8.298411215232591e-26 -1.134697803626025e-18 -0.9999999999999998 -1.231351758083821e-13 3.554053632400866e-25 -1.191605080349612e-18 
    -1.944140845594383e-26 -1.556015758770416e-19 
    6.029476727602099e-26 -4.724134927973923e-21 5.385343106013462e-26 -8.321791554431912e-21 5.164424855962401e-26 -1.245708930495952e-20 6.746233911212592e-26 -2.736167120494771e-20 
    3.119883941977489e-26 -4.822783397956127e-20 3.385424430794062e-26 -1.59045396833291e-19 3.554053632400866e-25 -1.191605080349612e-18 -0.9999999999999998 -1.506687068190859e-13 
    1.3797475853832e-25 -1.173306768149109e-18 
    2.919680714841689e-26 -3.043036642662131e-21 5.750681463986472e-26 -5.045327060176238e-21 3.432399833248402e-26 -6.943552513272817e-21 3.637825662257732e-26 -1.350282401144254e-20 
    6.83319339737261e-27 -1.964842378642185e-20 5.255133257011922e-26 -4.594372834476235e-20 -1.944140845594383e-26 -1.556015758770416e-19 1.3797475853832e-25 -1.173306768149109e-18 
    -1 -1.564418665471368e-13 
1122018.454301963 -1 -1.363683710058837e-13 -1.781176422579539e-25 -1.736527008293254e-18 6.11673960840718e-25 -2.064594675642646e-19 8.755411032533837e-26 -7.072829955987003e-20 
    -1.5988627318492e-26 -2.254646887486852e-20 6.102146061166992e-26 -1.161702170511749e-20 5.938450047598757e-26 -6.820204983990026e-21 5.586036407797761e-26 -4.452474869185604e-21 
    3.396429158640366e-26 -2.868039909091215e-21 
    -1.781176422579539e-25 -1.736527008293254e-18 -0.9999999999999999 -1.53498911835969e-13 7.846588488293131e-26 -1.669170362904069e-18 5.140083318652225e-28 -2.617367322201422e-19 
    9.054944654222854e-26 -5.914426991369609e-20 6.883852920562239e-26 -2.512905056661981e-20 7.147684890458637e-26 -1.305980932754202e-20 6.334485700433058e-26 -7.843277663091996e-21 
    4.726220340644489e-26 -4.755202401786529e-21 
    6.11673960840718e-25 -2.064594675642646e-19 7.846588488293131e-26 -1.669170362904069e-18 -0.9999999999999999 -1.479284036031379e-13 -4.862147327302844e-26 -1.678194256118787e-18 
    2.364599042707258e-25 -1.696320266876761e-19 7.401294501732967e-26 -5.123869401241612e-20 5.646266240370099e-26 -2.20429694298578e-20 6.068993687392095e-26 -1.17407941051845e-20 
    2.925338305123176e-26 -6.54431705578799e-21 
    8.755411032533837e-26 -7.072829955987003e-20 5.140083318652225e-28 -2.617367322201422e-19 -4.862147327302844e-26 -1.678194256118787e-18 -0.9999999999999999 -1.437838320392608e-13 
    4.138347179743711e-25 -1.403933164098416e-18 5.211981910753801e-26 -1.918058234857015e-19 5.332551848718948e-26 -5.857961877569198e-20 6.708322164452778e-26 -2.578833800098724e-20 
    4.880869397312476e-26 -1.272638201778346e-20 
    -1.5988627318492e-26 -2.254646887486852e-20 9.054944654222854e-26 -5.914426991369609e-20 2.364599042707258e-25 -1.696320266876761e-19 4.138347179743711e-25 -1.403933164098416e-18 
    -0.9999999999999999 -1.398958207539962e-13 -1.797649128587669e-26 -1.051776954848259e-18 -6.359606683039602e-26 -1.450056790448358e-19 2.904848869768261e-26 -4.545467426605608e-20 
    3.101328633317885e-26 -1.851855150188909e-20 
    6.102146061166992e-26 -1.161702170511749e-20 6.883852920562239e-26 -2.512905056661981e-20 7.401294501732967e-26 -5.123869401241612e-20 5.211981910753801e-26 -1.918058234857015e-19 
    -1.797649128587669e-26 -1.051776954848259e-18 -0.9999999999999999 -1.553699507959423e-13 1.279490688652145e-25 -1.069451467576281e-18 3.436670465916215e-27 -1.499001120644021e-19 
    1.915896422253905e-26 -4.330191880714299e-20 
    5.938450047598757e-26 -6.820204983990026e-21 7.147684890458637e-26 -1.305980932754202e-20 5.646266240370099e-26 -2.20429694298578e-20 5.332551848718948e-26 -5.857961877569198e-20 
    -6.359606683039602e-26 -1.450056790448358e-19 1.279490688652145e-25 -1.069451467576281e-18 -0.9999999999999999 -1.161502075563524e-13 -4.747890315900572e-25 -1.123085987466021e-18 
    4.201858654413646e-26 -1.466543615141797e-19 
    5.586036407797761e-26 -4.452474869185604e-21 6.334485700433058e-26 -7.843277663091996e-21 6.068993687392095e-26 -1.17407941051845e-20 6.708322164452778e-26 -2.578833800098724e-20 
    2.904848869768261e-26 -4.545467426605608e-20 3.436670465916215e-27 -1.499001120644021e-19 -4.747890315900572e-25 -1.123085987466021e-18 -0.9999999999999999 -1.423893694825122e-13 
    2.888048807040877e-25 -1.105840437535037e-18 
    3.396429158640366e-26 -2.868039909091215e-21 4.726220340644489e-26 -4.755202401786529e-21 2.925338305123176e-26 -6.54431705578799e-21 4.880869397312476e-26 -1.272638201778346e-20 
    3.101328633317885e-26 -1.851855150188909e-20 1.915896422253905e-26 -4.330191880714299e-20 4.201858654413646e-26 -1.466543615141797e-19 2.888048807040877e-25 -1.105840437535037e-18 
    -1 -1.474410087968963e-13 
1190471.933048065 -1 -1.289083355364329e-13 -6.445791297401629e-25 -1.642104085627245e-18 3.642888928941858e-25 -1.952334001532852e-19 5.665266394327835e-26 -6.688256431699995e-20 
    -1.636388144113798e-26 -2.13205080918481e-20 5.237459268007356e-26 -1.098534988600937e-20 4.539548373883816e-26 -6.449344590595933e-21 5.115577835902153e-26 -4.210379575482486e-21 
    4.447259299402082e-26 -2.712088360749947e-21 
    -6.445791297401629e-25 -1.642104085627245e-18 -0.9999999999999998 -1.448955470910351e-13 1.653824006982671e-25 -1.578409840078627e-18 2.497334539481454e-26 -2.475049880431679e-19 
    6.885104959253107e-26 -5.59283075535577e-20 6.475009632769055e-26 -2.376266568186744e-20 6.472052294775715e-26 -1.23496810165252e-20 5.792807517038853e-26 -7.416796823574984e-21 
    5.074968571932917e-26 -4.49664412925184e-21 
    3.642888928941858e-25 -1.952334001532852e-19 1.653824006982671e-25 -1.578409840078627e-18 -0.9999999999999998 -1.400105657826844e-13 1.75248389721136e-25 -1.586943005218619e-18 
    1.650457151620014e-25 -1.604083741158516e-19 5.907098444357601e-26 -4.84526067320085e-20 5.463176797760448e-26 -2.084438177264739e-20 5.362172381052107e-26 -1.11023850902928e-20 
    4.228123484938905e-26 -6.188459637274453e-21 
    5.665266394327835e-26 -6.688256431699995e-20 2.497334539481454e-26 -2.475049880431679e-19 1.75248389721136e-25 -1.586943005218619e-18 -0.9999999999999998 -1.355696736841838e-13 
    3.148391018314245e-25 -1.327594863932151e-18 5.236178003345373e-26 -1.813765307861105e-19 7.218623788014051e-26 -5.539440363679622e-20 6.15977775543928e-26 -2.43861093037964e-20 
    4.878148974022829e-26 -1.20343689463529e-20 
    -1.636388144113798e-26 -2.13205080918481e-20 6.885104959253107e-26 -5.59283075535577e-20 1.650457151620014e-25 -1.604083741158516e-19 3.148391018314245e-25 -1.327594863932151e-18 
    -0.9999999999999998 -1.320169600053833e-13 2.973891704916033e-26 -9.945871180204944e-19 -1.944503712674288e-26 -1.371210355594713e-19 5.118472199970278e-26 -4.298309276713852e-20 
    2.148145429179966e-26 -1.751162650264515e-20 
    5.237459268007356e-26 -1.098534988600937e-20 6.475009632769055e-26 -2.376266568186744e-20 5.907098444357601e-26 -4.84526067320085e-20 5.236178003345373e-26 -1.813765307861105e-19 
    2.973891704916033e-26 -9.945871180204944e-19 -0.9999999999999998 -1.471159931402854e-13 6.830620150349188e-26 -1.011300618970491e-18 4.598480118499788e-26 -1.417493803264886e-19 
    2.182493693907531e-26 -4.094738433726308e-20 
    4.539548373883816e-26 -6.449344590595933e-21 6.472052294775715e-26 -1.23496810165252e-20 5.463176797760448e-26 -2.084438177264739e-20 7.218623788014051e-26 -5.539440363679622e-20 
    -1.944503712674288e-26 -1.371210355594713e-19 6.830620150349188e-26 -1.011300618970491e-18 -0.9999999999999998 -1.098124995128802e-13 -2.943728567364927e-25 -1.062019359016271e-18 
    1.160834677488557e-26 -1.386800322806981e-19 
    5.115577835902153e-26 -4.210379575482486e-21 5.792807517038853e-26 -7.416796823574984e-21 5.362172381052107e-26 -1.11023850902928e-20 6.15977775543928e-26 -2.43861093037964e-20 
    5.118472199970278e-26 -4.298309276713852e-20 4.598480118499788e-26 -1.417493803264886e-19 -2.943728567364927e-25 -1.062019359016271e-18 -0.9999999999999998 -1.342374060546336e-13 
    3.922659421641616e-26 -1.045710893858567e-18 
    4.447259299402082e-26 -2.712088360749947e-21 5.074968571932917e-26 -4.49664412925184e-21 4.228123484938905e-26 -6.188459637274453e-21 4.878148974022829e-26 -1.20343689463529e-20 
    2.148145429179966e-26 -1.751162650264515e-20 2.182493693907531e-26 -4.094738433726308e-20 1.160834677488557e-26 -1.386800322806981e-19 3.922659421641616e-26 -1.045710893858567e-18 
    -1 -1.395664765728344e-13 
1258925.411794167 -1 -1.2153843867098e-13 -1.056282638873629e-24 -1.54768116296112e-18 1.415286128441176e-25 -1.840073327420251e-19 2.875740408185693e-26 -6.30368290741171e-20 
    -1.659599904777148e-26 -2.009454730882772e-20 4.434055577399176e-26 -1.035367806689575e-20 3.264393047114792e-26 -6.078484197175181e-21 4.664292852720014e-26 -3.96828428177638e-21 
    5.355999529421672e-26 -2.556136812375695e-21 
    -1.056282638873629e-24 -1.54768116296112e-18 -0.9999999999999999 -1.368060492035556e-13 2.418126369935451e-25 -1.487649317253181e-18 4.661660357737515e-26 -2.332732438661917e-19 
    4.908180336816147e-26 -5.271234519341194e-20 6.070138050253211e-26 -2.239628079711497e-20 5.829423013009065e-26 -1.163955270550598e-20 5.273812549788939e-26 -6.990315984055676e-21 
    5.354057446838746e-26 -4.238085856716855e-21 
    1.415286128441176e-25 -1.840073327420251e-19 2.418126369935451e-25 -1.487649317253181e-18 -0.9999999999999999 -1.31841328486938e-13 3.736766869893065e-25 -1.495691754318423e-18 
    1.003656836454074e-25 -1.511847215439989e-19 4.538456804778018e-26 -4.56665194515969e-20 5.26583537268267e-26 -1.964579411543729e-20 4.698686635325772e-26 -1.046397607539773e-20 
    5.362785423467863e-26 -5.832602218737873e-21 
    2.875740408185693e-26 -6.30368290741171e-20 4.661660357737515e-26 -2.332732438661917e-19 3.736766869893065e-25 -1.495691754318423e-18 -0.9999999999999999 -1.2814747520312e-13 
    2.246404245135841e-25 -1.251256563765878e-18 5.225000351600548e-26 -1.709472380865197e-19 8.854449980616035e-26 -5.22091884978952e-20 5.632368754548934e-26 -2.298388060660489e-20 
    4.84521839607992e-26 -1.134235587492299e-20 
    -1.659599904777148e-26 -2.009454730882772e-20 4.908180336816147e-26 -5.271234519341194e-20 1.003656836454074e-25 -1.511847215439989e-19 2.246404245135841e-25 -1.251256563765878e-18 
    -0.9999999999999999 -1.246822814756463e-13 7.207936038259425e-26 -9.373972811927276e-19 2.002618709033579e-26 -1.29236392074094e-19 7.059358661717162e-26 -4.051151126821113e-20 
    1.285186287417541e-26 -1.650470150339659e-20 
    4.434055577399176e-26 -1.035367806689575e-20 6.070138050253211e-26 -2.239628079711497e-20 4.538456804778018e-26 -4.56665194515969e-20 5.225000351600548e-26 -1.709472380865197e-19 
    7.207936038259425e-26 -9.373972811927276e-19 -0.9999999999999999 -1.384736143975493e-13 1.472230099980238e-26 -9.53149770364698e-19 8.361832133133475e-26 -1.335986485885639e-19 
    2.406450891414835e-26 -3.859284986738306e-20 
    3.264393047114792e-26 -6.078484197175181e-21 5.829423013009065e-26 -1.163955270550598e-20 5.26583537268267e-26 -1.964579411543729e-20 8.854449980616035e-26 -5.22091884978952e-20 
    2.002618709033579e-26 -1.29236392074094e-19 1.472230099980238e-26 -9.53149770364698e-19 -0.9999999999999999 -1.035189813252895e-13 -1.317358338273809e-25 -1.000952730566495e-18 
    -1.556737057251357e-26 -1.307057030472105e-19 
    4.664292852720014e-26 -3.96828428177638e-21 5.273812549788939e-26 -6.990315984055676e-21 4.698686635325772e-26 -1.046397607539773e-20 5.632368754548934e-26 -2.298388060660489e-20 
    7.059358661717162e-26 -4.051151126821113e-20 8.361832133133475e-26 -1.335986485885639e-19 -1.317358338273809e-25 -1.000952730566495e-18 -0.9999999999999999 -1.26904659130307e-13 
    -1.834555839397841e-25 -9.855813501820442e-19 
    5.355999529421672e-26 -2.556136812375695e-21 5.354057446838746e-26 -4.238085856716855e-21 5.362785423467863e-26 -5.832602218737873e-21 4.84521839607992e-26 -1.134235587492299e-20 
    1.285186287417541e-26 -1.650470150339659e-20 2.406450891414835e-26 -3.859284986738306e-20 -1.556737057251357e-26 -1.307057030472105e-19 -1.834555839397841e-25 -9.855813501820442e-19 
    -1 -1.314069374571026e-13 
1335731.47820846 -1 -1.15141570031081e-13 -4.382696136552971e-25 -1.463526991106347e-18 2.903868565696499e-26 -1.740019889019342e-19 6.564392099975552e-26 -5.960917396164105e-20 
    1.494441682823207e-26 -1.90019159788829e-20 4.582815143797597e-26 -9.790693547081735e-21 4.067297919873281e-26 -5.747982445335781e-21 5.630372925688424e-26 -3.752511964428788e-21 
    5.598625038843913e-26 -2.417153092539891e-21 
    -4.382696136552971e-25 -1.463526991106347e-18 -0.9999999999999998 -1.293524247462829e-13 1.457039268515901e-25 -1.406759125163167e-18 6.786835838754268e-26 -2.20589003553179e-19 
    5.299226553938063e-26 -4.984612452948224e-20 5.717827072641313e-26 -2.117849475982483e-20 6.150772551309803e-26 -1.100665519229094e-20 5.768387425099019e-26 -6.610219113046164e-21 
    5.347245417735511e-26 -4.007636524329761e-21 
    2.903868565696499e-26 -1.740019889019342e-19 1.457039268515901e-25 -1.406759125163167e-18 -0.9999999999999998 -1.249115326477823e-13 2.123112495431548e-25 -1.414364140773431e-18 
